(1491214594.619227) can0 7E8#04410C1F8A000000
(1491214594.869256) can0 7E8#03410D2F00000000
(1491214595.119246) can0 7E8#03410D2F00000000
(1491214595.369276) can0 7E8#0441100D5A000000
(1491214595.619267) can0 7E8#0341049000000000
(1491214595.869248) can0 7E8#03410D2F00000000
(1491214596.119227) can0 7E8#03410D2F00000000
(1491214596.369269) can0 7E8#0441100D25000000
(1491214596.619229) can0 7E8#04410C1FEE000000
(1491214596.869234) can0 7E8#03410D2F00000000
(1491214597.119244) can0 7E8#03410D2F00000000
(1491214597.369256) can0 7E8#0441100B86000000
(1491214597.619188) can0 7E8#0341049500000000
(1491214597.869226) can0 7E8#03410D2F00000000
(1491214598.119226) can0 7E8#03410D2F00000000
(1491214598.369222) can0 7E8#0441100BA8000000
(1491214598.619367) can0 7E8#04410C1FBE000000
(1491214598.869231) can0 7E8#03410D2F00000000
(1491214599.119199) can0 7E8#03410D2F00000000
(1491214599.369219) can0 7E8#0441100F99000000
(1491214599.619184) can0 7E8#034104AE00000000
(1491214599.869357) can0 7E8#03410D3000000000
(1491214600.119203) can0 7E8#03410D3000000000
(1491214600.369251) can0 7E8#0441101252000000
(1491214600.619179) can0 7E8#04410C2152000000
(1491214600.869205) can0 7E8#03410D3200000000
(1491214601.119183) can0 7E8#03410D3200000000
(1491214601.369339) can0 7E8#04411012F5000000
(1491214601.619164) can0 7E8#034104A200000000
(1491214601.869208) can0 7E8#03410D3300000000
(1491214602.119166) can0 7E8#03410D3300000000
(1491214602.369203) can0 7E8#0441101074000000
(1491214602.619154) can0 7E8#04410C19EF000000
(1491214602.869214) can0 7E8#03410D3400000000
(1491214603.119172) can0 7E8#03410D3400000000
(1491214603.369195) can0 7E8#04411010A6000000
(1491214603.619188) can0 7E8#034104A400000000
(1491214603.869188) can0 7E8#03410D3500000000
(1491214604.119172) can0 7E8#03410D3500000000
(1491214604.369182) can0 7E8#0441101136000000
(1491214604.619142) can0 7E8#04410C1AF8000000
(1491214604.869177) can0 7E8#03410D3600000000
(1491214605.119192) can0 7E8#03410D3600000000
(1491214605.369273) can0 7E8#0441100DAF000000
(1491214605.619140) can0 7E8#034104A500000000
(1491214605.869261) can0 7E8#03410D3600000000
(1491214606.119158) can0 7E8#03410D3600000000
(1491214606.369166) can0 7E8#0441100E35000000
(1491214606.619154) can0 7E8#04410C1B9C000000
(1491214606.869184) can0 7E8#03410D3700000000
(1491214607.119155) can0 7E8#03410D3700000000
(1491214607.369198) can0 7E8#0441100FEB000000
(1491214607.619192) can0 7E8#0341048C00000000
(1491214607.869149) can0 7E8#03410D3800000000
(1491214608.119198) can0 7E8#03410D3800000000
(1491214608.369169) can0 7E8#0441100DB2000000
(1491214608.619114) can0 7E8#04410C1C48000000
(1491214608.869188) can0 7E8#03410D3800000000
(1491214609.119151) can0 7E8#03410D3800000000
(1491214609.369258) can0 7E8#0441100CD4000000
(1491214609.619104) can0 7E8#034104B200000000
(1491214609.869127) can0 7E8#03410D3900000000
(1491214610.119110) can0 7E8#03410D3900000000
(1491214610.369156) can0 7E8#0441100D22000000
(1491214610.619079) can0 7E8#04410C1CCF000000
(1491214610.869148) can0 7E8#03410D3900000000
(1491214611.119149) can0 7E8#03410D3900000000
(1491214611.369237) can0 7E8#0441100D96000000
(1491214611.619142) can0 7E8#034104AB00000000
(1491214611.869205) can0 7E8#03410D3A00000000
(1491214612.119117) can0 7E8#03410D3A00000000
(1491214612.369126) can0 7E8#0441100E1F000000
(1491214612.619074) can0 7E8#04410C1D4C000000
(1491214612.869097) can0 7E8#03410D3A00000000
(1491214613.119069) can0 7E8#03410D3A00000000
(1491214613.369116) can0 7E8#0441100B69000000
(1491214613.619040) can0 7E8#0341049500000000
(1491214613.869086) can0 7E8#03410D3A00000000
(1491214614.119093) can0 7E8#03410D3A00000000
(1491214614.369114) can0 7E8#0441100AE0000000
(1491214614.619063) can0 7E8#04410C1D65000000
(1491214614.869075) can0 7E8#03410D3B00000000
(1491214615.119057) can0 7E8#03410D3B00000000
(1491214615.369093) can0 7E8#0441100B2E000000
(1491214615.619092) can0 7E8#0341049D00000000
(1491214615.869090) can0 7E8#03410D3B00000000
(1491214616.119105) can0 7E8#03410D3B00000000
(1491214616.369964) can0 7E8#0441100979000000
(1491214616.619100) can0 7E8#04410C1D62000000
(1491214616.869764) can0 7E8#03410D3A00000000
(1491214617.119760) can0 7E8#03410D3A00000000
(1491214617.369709) can0 7E8#04411007B7000000
(1491214617.619069) can0 7E8#0341044100000000
(1491214617.869700) can0 7E8#03410D3900000000
(1491214618.119762) can0 7E8#03410D3900000000
(1491214618.369642) can0 7E8#0441100753000000
(1491214618.619670) can0 7E8#04410C1C69000000
(1491214618.869599) can0 7E8#03410D3800000000
(1491214619.119557) can0 7E8#03410D3800000000
(1491214619.369538) can0 7E8#044110074F000000
(1491214619.619554) can0 7E8#0341044700000000
(1491214619.869525) can0 7E8#03410D3800000000
(1491214620.119519) can0 7E8#03410D3800000000
(1491214620.369470) can0 7E8#0441100753000000
(1491214620.619517) can0 7E8#04410C1BC6000000
(1491214620.869439) can0 7E8#03410D3700000000
(1491214621.119471) can0 7E8#03410D3700000000
(1491214621.369632) can0 7E8#044110078B000000
(1491214621.619605) can0 7E8#0341045B00000000
(1491214621.869393) can0 7E8#03410D3700000000
(1491214622.119524) can0 7E8#03410D3700000000
(1491214622.369574) can0 7E8#044110078E000000
(1491214622.619679) can0 7E8#04410C1B5F000000
(1491214622.869767) can0 7E8#03410D3600000000
(1491214623.119590) can0 7E8#03410D3600000000
(1491214623.369563) can0 7E8#0441100753000000
(1491214623.619561) can0 7E8#0341044100000000
(1491214623.869306) can0 7E8#03410D3600000000
(1491214624.119298) can0 7E8#03410D3600000000
(1491214624.369253) can0 7E8#04411006F5000000
(1491214624.619289) can0 7E8#04410C1AB4000000
(1491214624.869223) can0 7E8#03410D3500000000
(1491214625.119253) can0 7E8#03410D3500000000
(1491214625.369202) can0 7E8#04411007A1000000
(1491214625.619215) can0 7E8#0341043F00000000
(1491214625.869188) can0 7E8#03410D3500000000
(1491214626.119159) can0 7E8#03410D3400000000
(1491214626.369358) can0 7E8#044110073A000000
(1491214626.619180) can0 7E8#04410C1A59000000
(1491214626.869119) can0 7E8#03410D3400000000
(1491214627.119133) can0 7E8#03410D3400000000
(1491214627.369073) can0 7E8#0441100785000000
(1491214627.619152) can0 7E8#0341047B00000000
(1491214627.869067) can0 7E8#03410D3400000000
(1491214628.119065) can0 7E8#03410D3500000000
(1491214628.369102) can0 7E8#04411008DF000000
(1491214628.619091) can0 7E8#04410C1A99000000
(1491214628.869055) can0 7E8#03410D3500000000
(1491214629.118953) can0 7E8#03410D3500000000
(1491214629.369051) can0 7E8#0441100A44000000
(1491214629.619057) can0 7E8#0341049600000000
(1491214629.869145) can0 7E8#03410D3600000000
(1491214630.118952) can0 7E8#03410D3600000000
(1491214630.368950) can0 7E8#0441100A82000000
(1491214630.618956) can0 7E8#04410C1B8B000000
(1491214630.869085) can0 7E8#03410D3700000000
(1491214631.118942) can0 7E8#03410D3700000000
(1491214631.369053) can0 7E8#0441100AA5000000
(1491214631.618912) can0 7E8#0341049600000000
(1491214631.869025) can0 7E8#03410D3800000000
(1491214632.118956) can0 7E8#03410D3800000000
(1491214632.369019) can0 7E8#0441100AC1000000
(1491214632.619017) can0 7E8#04410C1C37000000
(1491214632.869162) can0 7E8#03410D3900000000
(1491214633.119047) can0 7E8#03410D3900000000
(1491214633.368934) can0 7E8#0441100988000000
(1491214633.619013) can0 7E8#034104A700000000
(1491214633.869104) can0 7E8#03410D3A00000000
(1491214634.118903) can0 7E8#03410D3A00000000
(1491214634.368999) can0 7E8#044110093A000000
(1491214634.618935) can0 7E8#04410C175D000000
(1491214634.869094) can0 7E8#03410D3B00000000
(1491214635.118924) can0 7E8#03410D3B00000000
(1491214635.368922) can0 7E8#0441100921000000
(1491214635.618860) can0 7E8#034104BA00000000
(1491214635.869049) can0 7E8#03410D3C00000000
(1491214636.118905) can0 7E8#03410D3D00000000
(1491214636.368978) can0 7E8#0441100CC7000000
(1491214636.618871) can0 7E8#04410C170E000000
(1491214636.868998) can0 7E8#03410D3E00000000
(1491214637.118871) can0 7E8#03410D3F00000000
(1491214637.368977) can0 7E8#0441100E86000000
(1491214637.618850) can0 7E8#0341043800000000
(1491214637.868971) can0 7E8#03410D4000000000
(1491214638.118870) can0 7E8#03410D4000000000
(1491214638.368891) can0 7E8#0441100802000000
(1491214638.618837) can0 7E8#04410C17C1000000
(1491214638.868952) can0 7E8#03410D4000000000
(1491214639.118859) can0 7E8#03410D4000000000
(1491214639.368881) can0 7E8#04411005AD000000
(1491214639.618877) can0 7E8#0341046000000000
(1491214639.868942) can0 7E8#03410D4000000000
(1491214640.118849) can0 7E8#03410D4000000000
(1491214640.368946) can0 7E8#04411005A6000000
(1491214640.618819) can0 7E8#04410C17C8000000
(1491214640.868943) can0 7E8#03410D4000000000
(1491214641.118873) can0 7E8#03410D4000000000
(1491214641.368927) can0 7E8#0441100A56000000
(1491214641.618824) can0 7E8#0341041800000000
(1491214641.868922) can0 7E8#03410D4000000000
(1491214642.118819) can0 7E8#03410D4000000000
(1491214642.368838) can0 7E8#0441100675000000
(1491214642.618822) can0 7E8#04410C1822000000
(1491214642.868911) can0 7E8#03410D4000000000
(1491214643.118842) can0 7E8#03410D4100000000
(1491214643.368830) can0 7E8#04411006D9000000
(1491214643.618829) can0 7E8#0341049200000000
(1491214643.868900) can0 7E8#03410D4100000000
(1491214644.118973) can0 7E8#03410D4200000000
(1491214644.368896) can0 7E8#0441100921000000
(1491214644.618826) can0 7E8#04410C19BB000000
(1491214644.868913) can0 7E8#03410D4300000000
(1491214645.118823) can0 7E8#03410D4300000000
(1491214645.368928) can0 7E8#0441100A0B000000
(1491214645.618933) can0 7E8#0341043700000000
(1491214645.868920) can0 7E8#03410D4400000000
(1491214646.118786) can0 7E8#03410D4400000000
(1491214646.368800) can0 7E8#0441100B6D000000
(1491214646.618781) can0 7E8#04410C194D000000
(1491214646.868869) can0 7E8#03410D4400000000
(1491214647.118776) can0 7E8#03410D4400000000
(1491214647.368865) can0 7E8#0441100B92000000
(1491214647.618784) can0 7E8#0341040000000000
(1491214647.868784) can0 7E8#03410D4400000000
(1491214648.118789) can0 7E8#03410D4400000000
(1491214648.368854) can0 7E8#0441100B8C000000
(1491214648.618815) can0 7E8#04410C1940000000
(1491214648.868848) can0 7E8#03410D4400000000
(1491214649.118781) can0 7E8#03410D4400000000
(1491214649.368843) can0 7E8#0441100B8C000000
(1491214649.618805) can0 7E8#0341040000000000
(1491214649.868839) can0 7E8#03410D4300000000
(1491214650.118879) can0 7E8#03410D4300000000
(1491214650.368831) can0 7E8#0441100B66000000
(1491214650.618780) can0 7E8#04410C1910000000
(1491214650.868828) can0 7E8#03410D4300000000
(1491214651.118826) can0 7E8#03410D4300000000
(1491214651.368832) can0 7E8#0441100B50000000
(1491214651.618786) can0 7E8#0341040000000000
(1491214651.868818) can0 7E8#03410D4200000000
(1491214652.118825) can0 7E8#03410D4100000000
(1491214652.368822) can0 7E8#0441100B02000000
(1491214652.618741) can0 7E8#04410C1817000000
(1491214652.868809) can0 7E8#03410D4000000000
(1491214653.118988) can0 7E8#03410D4000000000
(1491214653.368802) can0 7E8#0441100A88000000
(1491214653.618725) can0 7E8#0341040000000000
(1491214653.868810) can0 7E8#03410D3F00000000
(1491214654.118837) can0 7E8#03410D3F00000000
(1491214654.368791) can0 7E8#0441100A63000000
(1491214654.618947) can0 7E8#04410C1749000000
(1491214654.868798) can0 7E8#03410D3E00000000
(1491214655.118793) can0 7E8#03410D3D00000000
(1491214655.368781) can0 7E8#0441100A28000000
(1491214655.618712) can0 7E8#0341040000000000
(1491214655.868775) can0 7E8#03410D3C00000000
(1491214656.118882) can0 7E8#03410D3B00000000
(1491214656.368771) can0 7E8#04411009F2000000
(1491214656.618703) can0 7E8#04410C15FA000000
(1491214656.868780) can0 7E8#03410D3B00000000
(1491214657.118772) can0 7E8#03410D3A00000000
(1491214657.368844) can0 7E8#0441100998000000
(1491214657.619108) can0 7E8#0341040000000000
(1491214657.868933) can0 7E8#03410D3A00000000
(1491214658.118718) can0 7E8#03410D3A00000000
(1491214658.368759) can0 7E8#044110098B000000
(1491214658.618698) can0 7E8#04410C15C3000000
(1491214658.868755) can0 7E8#03410D3A00000000
(1491214659.118776) can0 7E8#03410D3A00000000
(1491214659.368740) can0 7E8#044110064C000000
(1491214659.618687) can0 7E8#0341046800000000
(1491214659.868744) can0 7E8#03410D3B00000000
(1491214660.118658) can0 7E8#03410D3B00000000
(1491214660.368772) can0 7E8#04411005B0000000
(1491214660.618725) can0 7E8#04410C1604000000
(1491214660.868737) can0 7E8#03410D3B00000000
(1491214661.118647) can0 7E8#03410D3B00000000
(1491214661.368719) can0 7E8#0441100969000000
(1491214661.618666) can0 7E8#0341040000000000
(1491214661.868713) can0 7E8#03410D3B00000000
(1491214662.118711) can0 7E8#03410D3B00000000
(1491214662.368714) can0 7E8#04411005EB000000
(1491214662.618690) can0 7E8#04410C163C000000
(1491214662.868713) can0 7E8#03410D3C00000000
(1491214663.118734) can0 7E8#03410D3C00000000
(1491214663.368698) can0 7E8#044110080E000000
(1491214663.618696) can0 7E8#0341043300000000
(1491214663.868694) can0 7E8#03410D3C00000000
(1491214664.118690) can0 7E8#03410D3D00000000
(1491214664.368714) can0 7E8#0441100A15000000
(1491214664.618687) can0 7E8#04410C169C000000
(1491214664.868682) can0 7E8#03410D3C00000000
(1491214665.118689) can0 7E8#03410D3C00000000
(1491214665.368711) can0 7E8#0441100691000000
(1491214665.618626) can0 7E8#0341043B00000000
(1491214665.868671) can0 7E8#03410D3D00000000
(1491214666.118670) can0 7E8#03410D3D00000000
(1491214666.368667) can0 7E8#0441100843000000
(1491214666.618708) can0 7E8#04410C16C9000000
(1491214666.868989) can0 7E8#03410D3D00000000
(1491214667.118666) can0 7E8#03410D3D00000000
(1491214667.368665) can0 7E8#044110066E000000
(1491214667.618589) can0 7E8#0341043700000000
(1491214667.868661) can0 7E8#03410D3D00000000
(1491214668.118672) can0 7E8#03410D3D00000000
(1491214668.368653) can0 7E8#0441100902000000
(1491214668.618643) can0 7E8#04410C16E8000000
(1491214668.868800) can0 7E8#03410D3E00000000
(1491214669.118706) can0 7E8#03410D3E00000000
(1491214669.368659) can0 7E8#0441100A05000000
(1491214669.618592) can0 7E8#0341040100000000
(1491214669.868630) can0 7E8#03410D3E00000000
(1491214670.118630) can0 7E8#03410D3D00000000
(1491214670.368625) can0 7E8#0441100A2E000000
(1491214670.618557) can0 7E8#04410C16EE000000
(1491214670.868621) can0 7E8#03410D3D00000000
(1491214671.118651) can0 7E8#03410D3E00000000
(1491214671.368615) can0 7E8#0441100A1E000000
(1491214671.618638) can0 7E8#0341040000000000
(1491214671.868644) can0 7E8#03410D3D00000000
(1491214672.118618) can0 7E8#03410D3D00000000
(1491214672.368638) can0 7E8#0441100A31000000
(1491214672.618634) can0 7E8#04410C16DE000000
(1491214672.868640) can0 7E8#03410D3D00000000
(1491214673.118599) can0 7E8#03410D3D00000000
(1491214673.368595) can0 7E8#0441100A2B000000
(1491214673.618602) can0 7E8#0341040000000000
(1491214673.868614) can0 7E8#03410D3D00000000
(1491214674.118596) can0 7E8#03410D3D00000000
(1491214674.368593) can0 7E8#0441100A18000000
(1491214674.618607) can0 7E8#04410C16BF000000
(1491214674.868580) can0 7E8#03410D3D00000000
(1491214675.118576) can0 7E8#03410D3D00000000
(1491214675.368583) can0 7E8#0441100708000000
(1491214675.618594) can0 7E8#0341042E00000000
(1491214675.868601) can0 7E8#03410D3D00000000
(1491214676.118578) can0 7E8#03410D3D00000000
(1491214676.368575) can0 7E8#044110099E000000
(1491214676.618605) can0 7E8#04410C16C3000000
(1491214676.868559) can0 7E8#03410D3D00000000
(1491214677.118570) can0 7E8#03410D3D00000000
(1491214677.368610) can0 7E8#0441100A08000000
(1491214677.618580) can0 7E8#0341040000000000
(1491214677.868574) can0 7E8#03410D3D00000000
(1491214678.118569) can0 7E8#03410D3D00000000
(1491214678.368589) can0 7E8#0441100A15000000
(1491214678.618561) can0 7E8#04410C1696000000
(1491214678.868537) can0 7E8#03410D3C00000000
(1491214679.118561) can0 7E8#03410D3C00000000
(1491214679.368532) can0 7E8#04411009EF000000
(1491214679.618542) can0 7E8#0341040700000000
(1491214679.868527) can0 7E8#03410D3C00000000
(1491214680.118553) can0 7E8#03410D3C00000000
(1491214680.368553) can0 7E8#04411009EF000000
(1491214680.618534) can0 7E8#04410C166E000000
(1491214680.868526) can0 7E8#03410D3C00000000
(1491214681.118513) can0 7E8#03410D3C00000000
(1491214681.368553) can0 7E8#04411009EF000000
(1491214681.618510) can0 7E8#0341040D00000000
(1491214681.868504) can0 7E8#03410D3C00000000
(1491214682.118503) can0 7E8#03410D3C00000000
(1491214682.368535) can0 7E8#04411009F9000000
(1491214682.618501) can0 7E8#04410C164C000000
(1491214682.868497) can0 7E8#03410D3C00000000
(1491214683.118496) can0 7E8#03410D3C00000000
(1491214683.368501) can0 7E8#04411009D9000000
(1491214683.618511) can0 7E8#0341040000000000
(1491214683.868487) can0 7E8#03410D3B00000000
(1491214684.118485) can0 7E8#03410D3B00000000
(1491214684.368524) can0 7E8#04411009E0000000
(1491214684.618481) can0 7E8#04410C1626000000
(1491214684.868498) can0 7E8#03410D3B00000000
(1491214685.118499) can0 7E8#03410D3B00000000
(1491214685.368522) can0 7E8#04411009CD000000
(1491214685.618468) can0 7E8#0341040000000000
(1491214685.868558) can0 7E8#03410D3B00000000
(1491214686.118473) can0 7E8#03410D3B00000000
(1491214686.368494) can0 7E8#04411009A7000000
(1491214686.618471) can0 7E8#04410C15F9000000
(1491214686.868455) can0 7E8#03410D3B00000000
(1491214687.118452) can0 7E8#03410D3B00000000
(1491214687.368458) can0 7E8#04411009AB000000
(1491214687.618470) can0 7E8#0341040000000000
(1491214687.868444) can0 7E8#03410D3B00000000
(1491214688.118444) can0 7E8#03410D3B00000000
(1491214688.368474) can0 7E8#0441100862000000
(1491214688.618437) can0 7E8#04410C15FB000000
(1491214688.868468) can0 7E8#03410D3B00000000
(1491214689.118440) can0 7E8#03410D3B00000000
(1491214689.368488) can0 7E8#0441100574000000
(1491214689.618436) can0 7E8#0341047500000000
(1491214689.868450) can0 7E8#03410D3B00000000
(1491214690.118431) can0 7E8#03410D3B00000000
(1491214690.368480) can0 7E8#04411005DF000000
(1491214690.618417) can0 7E8#04410C1666000000
(1491214690.868447) can0 7E8#03410D3C00000000
(1491214691.118420) can0 7E8#03410D3C00000000
(1491214691.368468) can0 7E8#0441100581000000
(1491214691.618412) can0 7E8#0341045900000000
(1491214691.868556) can0 7E8#03410D3C00000000
(1491214692.118401) can0 7E8#03410D3C00000000
(1491214692.368607) can0 7E8#0441100574000000
(1491214692.618395) can0 7E8#04410C16C0000000
(1491214692.868429) can0 7E8#03410D3D00000000
(1491214693.118399) can0 7E8#03410D3D00000000
(1491214693.368446) can0 7E8#04411006F2000000
(1491214693.618395) can0 7E8#0341047E00000000
(1491214693.868441) can0 7E8#03410D3D00000000
(1491214694.118406) can0 7E8#03410D3E00000000
(1491214694.368434) can0 7E8#0441100762000000
(1491214694.618440) can0 7E8#04410C1885000000
(1491214694.868432) can0 7E8#03410D3F00000000
(1491214695.118403) can0 7E8#03410D3F00000000
(1491214695.368426) can0 7E8#0441100A1B000000
(1491214695.618374) can0 7E8#034104A300000000
(1491214695.868421) can0 7E8#03410D4000000000
(1491214696.118384) can0 7E8#03410D4000000000
(1491214696.368447) can0 7E8#04411009E6000000
(1491214696.618354) can0 7E8#04410C1949000000
(1491214696.868411) can0 7E8#03410D4100000000
(1491214697.118372) can0 7E8#03410D4200000000
(1491214697.368422) can0 7E8#04411009AB000000
(1491214697.618343) can0 7E8#0341049700000000
(1491214697.868401) can0 7E8#03410D4300000000
(1491214698.118388) can0 7E8#03410D4300000000
(1491214698.368477) can0 7E8#044110097F000000
(1491214698.618384) can0 7E8#04410C19E5000000
(1491214698.868391) can0 7E8#03410D4400000000
(1491214699.118404) can0 7E8#03410D4400000000
(1491214699.368436) can0 7E8#04411006EF000000
(1491214699.618450) can0 7E8#0341041B00000000
(1491214699.868479) can0 7E8#03410D4400000000
(1491214700.118494) can0 7E8#03410D4400000000
(1491214700.368556) can0 7E8#0441100B4A000000
(1491214700.618352) can0 7E8#04410C194F000000
(1491214700.868568) can0 7E8#03410D4400000000
(1491214701.118332) can0 7E8#03410D4400000000
(1491214701.368605) can0 7E8#0441100B8C000000
(1491214701.618334) can0 7E8#0341040000000000
(1491214701.868384) can0 7E8#03410D4300000000
(1491214702.118330) can0 7E8#03410D4300000000
(1491214702.368754) can0 7E8#0441100B6D000000
(1491214702.618291) can0 7E8#04410C1918000000
(1491214702.868404) can0 7E8#03410D4300000000
(1491214703.118314) can0 7E8#03410D4300000000
(1491214703.368333) can0 7E8#0441100B57000000
(1491214703.618407) can0 7E8#0341040000000000
(1491214703.868338) can0 7E8#03410D4200000000
(1491214704.118317) can0 7E8#03410D4200000000
(1491214704.368348) can0 7E8#0441100B37000000
(1491214704.618297) can0 7E8#04410C1864000000
(1491214704.868361) can0 7E8#03410D4100000000
(1491214705.118317) can0 7E8#03410D4100000000
(1491214705.368338) can0 7E8#0441100AD7000000
(1491214705.618287) can0 7E8#0341040000000000
(1491214705.868342) can0 7E8#03410D4000000000
(1491214706.118290) can0 7E8#03410D4000000000
(1491214706.368330) can0 7E8#0441100A98000000
(1491214706.618383) can0 7E8#04410C1799000000
(1491214706.868307) can0 7E8#03410D3F00000000
(1491214707.118295) can0 7E8#03410D3F00000000
(1491214707.368293) can0 7E8#0441100A8C000000
(1491214707.618265) can0 7E8#0341040000000000
(1491214707.868296) can0 7E8#03410D3F00000000
(1491214708.118294) can0 7E8#03410D3F00000000
(1491214708.368333) can0 7E8#0441100694000000
(1491214708.618270) can0 7E8#04410C1796000000
(1491214708.868287) can0 7E8#03410D3F00000000
(1491214709.118274) can0 7E8#03410D3F00000000
(1491214709.368295) can0 7E8#04411005F1000000
(1491214709.618243) can0 7E8#0341044F00000000
(1491214709.868350) can0 7E8#03410D4000000000
(1491214710.118274) can0 7E8#03410D4000000000
(1491214710.368295) can0 7E8#04411005DF000000
(1491214710.618236) can0 7E8#04410C17EC000000
(1491214710.868291) can0 7E8#03410D4000000000
(1491214711.118262) can0 7E8#03410D4000000000
(1491214711.368285) can0 7E8#04411005BC000000
(1491214711.618225) can0 7E8#0341045700000000
(1491214711.868280) can0 7E8#03410D4000000000
(1491214712.118259) can0 7E8#03410D4000000000
(1491214712.368265) can0 7E8#0441100639000000
(1491214712.618228) can0 7E8#04410C17F3000000
(1491214712.868270) can0 7E8#03410D4100000000
(1491214713.118233) can0 7E8#03410D4000000000
(1491214713.368289) can0 7E8#044110067B000000
(1491214713.618204) can0 7E8#0341044800000000
(1491214713.868251) can0 7E8#03410D4000000000
(1491214714.118223) can0 7E8#03410D4100000000
(1491214714.368255) can0 7E8#044110066E000000
(1491214714.618201) can0 7E8#04410C18B3000000
(1491214714.868243) can0 7E8#03410D4100000000
(1491214715.118229) can0 7E8#03410D4100000000
(1491214715.368256) can0 7E8#044110069D000000
(1491214715.618217) can0 7E8#0341045F00000000
(1491214715.868238) can0 7E8#03410D4200000000
(1491214716.118204) can0 7E8#03410D4200000000
(1491214716.368250) can0 7E8#044110072D000000
(1491214716.618173) can0 7E8#04410C19F7000000
(1491214716.868279) can0 7E8#03410D4200000000
(1491214717.118206) can0 7E8#03410D4300000000
(1491214717.368303) can0 7E8#0441100AD0000000
(1491214717.618186) can0 7E8#034104A400000000
(1491214717.868212) can0 7E8#03410D4400000000
(1491214718.118266) can0 7E8#03410D4400000000
(1491214718.368202) can0 7E8#0441100B54000000
(1491214718.618178) can0 7E8#04410C1AA4000000
(1491214718.868207) can0 7E8#03410D4500000000
(1491214719.118171) can0 7E8#03410D4500000000
(1491214719.368219) can0 7E8#0441100A24000000
(1491214719.618216) can0 7E8#0341049000000000
(1491214719.868197) can0 7E8#03410D4600000000
(1491214720.118170) can0 7E8#03410D4600000000
(1491214720.368215) can0 7E8#0441100853000000
(1491214720.618157) can0 7E8#04410C1AE2000000
(1491214720.868179) can0 7E8#03410D4700000000
(1491214721.118160) can0 7E8#03410D4700000000
(1491214721.368222) can0 7E8#044110083D000000
(1491214721.618163) can0 7E8#034104AE00000000
(1491214721.868202) can0 7E8#03410D4800000000
(1491214722.118147) can0 7E8#03410D4800000000
(1491214722.368171) can0 7E8#0441100972000000
(1491214722.618145) can0 7E8#04410C1ACE000000
(1491214722.868163) can0 7E8#03410D4800000000
(1491214723.118130) can0 7E8#03410D4800000000
(1491214723.368160) can0 7E8#04411005E2000000
(1491214723.618123) can0 7E8#0341048E00000000
(1491214723.868172) can0 7E8#03410D4900000000
(1491214724.118216) can0 7E8#03410D4900000000
(1491214724.368193) can0 7E8#04411006FB000000
(1491214724.618140) can0 7E8#04410C171F000000
(1491214724.868146) can0 7E8#03410D4900000000
(1491214725.118118) can0 7E8#03410D4900000000
(1491214725.368182) can0 7E8#0441100746000000
(1491214725.618105) can0 7E8#0341049F00000000
(1491214725.868187) can0 7E8#03410D4A00000000
(1491214726.118163) can0 7E8#03410D4A00000000
(1491214726.368230) can0 7E8#0441100A2B000000
(1491214726.618144) can0 7E8#04410C1759000000
(1491214726.868175) can0 7E8#03410D4B00000000
(1491214727.118339) can0 7E8#03410D4C00000000
(1491214727.368168) can0 7E8#0441100A5D000000
(1491214727.618093) can0 7E8#0341046D00000000
(1491214727.868140) can0 7E8#03410D4C00000000
(1491214728.118112) can0 7E8#03410D4D00000000
(1491214728.368150) can0 7E8#0441100A85000000
(1491214728.618074) can0 7E8#04410C16BD000000
(1491214728.868121) can0 7E8#03410D4C00000000
(1491214729.118102) can0 7E8#03410D4C00000000
(1491214729.368149) can0 7E8#0441100614000000
(1491214729.618087) can0 7E8#0341043D00000000
(1491214729.868144) can0 7E8#03410D4D00000000
(1491214730.118091) can0 7E8#03410D4D00000000
(1491214730.368143) can0 7E8#04411009C4000000
(1491214730.618054) can0 7E8#04410C16B3000000
(1491214730.868109) can0 7E8#03410D4C00000000
(1491214731.118081) can0 7E8#03410D4C00000000
(1491214731.368101) can0 7E8#0441100A1B000000
(1491214731.618076) can0 7E8#0341040000000000
(1491214731.868099) can0 7E8#03410D4C00000000
(1491214732.118070) can0 7E8#03410D4B00000000
(1491214732.368118) can0 7E8#0441100A15000000
(1491214732.618030) can0 7E8#04410C163D000000
(1491214732.868104) can0 7E8#03410D4A00000000
(1491214733.118061) can0 7E8#03410D4A00000000
(1491214733.368108) can0 7E8#04411009C0000000
(1491214733.618055) can0 7E8#0341040000000000
(1491214733.868083) can0 7E8#03410D4900000000
(1491214734.118042) can0 7E8#03410D4800000000
(1491214734.368103) can0 7E8#044110096F000000
(1491214734.618079) can0 7E8#04410C1530000000
(1491214734.868058) can0 7E8#03410D4700000000
(1491214735.118032) can0 7E8#03410D4600000000
(1491214735.368062) can0 7E8#0441100937000000
(1491214735.618024) can0 7E8#0341040000000000
(1491214735.868049) can0 7E8#03410D4600000000
(1491214736.118021) can0 7E8#03410D4600000000
(1491214736.368076) can0 7E8#044110090E000000
(1491214736.618041) can0 7E8#04410C14A5000000
(1491214736.868047) can0 7E8#03410D4500000000
(1491214737.118044) can0 7E8#03410D4500000000
(1491214737.368317) can0 7E8#04411008F8000000
(1491214737.618006) can0 7E8#0341040000000000
(1491214737.868052) can0 7E8#03410D4400000000
(1491214738.118033) can0 7E8#03410D4300000000
(1491214738.368331) can0 7E8#044110086F000000
(1491214738.618395) can0 7E8#04410C1137000000
(1491214738.868500) can0 7E8#03410D4200000000
(1491214739.118489) can0 7E8#03410D4200000000
(1491214739.368283) can0 7E8#04411007C6000000
(1491214739.617991) can0 7E8#0341043700000000
(1491214739.868257) can0 7E8#03410D4100000000
(1491214740.118379) can0 7E8#03410D4100000000
(1491214740.368211) can0 7E8#0441100AB4000000
(1491214740.618200) can0 7E8#04410C1832000000
(1491214740.868252) can0 7E8#03410D4100000000
(1491214741.118201) can0 7E8#03410D4100000000
(1491214741.368166) can0 7E8#0441100AD7000000
(1491214741.618163) can0 7E8#0341040000000000
(1491214741.868193) can0 7E8#03410D4000000000
(1491214742.118168) can0 7E8#03410D4000000000
(1491214742.368137) can0 7E8#0441100A8F000000
(1491214742.618137) can0 7E8#04410C17E4000000
(1491214742.868150) can0 7E8#03410D4000000000
(1491214743.118166) can0 7E8#03410D4000000000
(1491214743.368129) can0 7E8#044110062D000000
(1491214743.618118) can0 7E8#0341048300000000
(1491214743.868100) can0 7E8#03410D4000000000
(1491214744.118103) can0 7E8#03410D4000000000
(1491214744.368086) can0 7E8#0441100862000000
(1491214744.618067) can0 7E8#04410C19C4000000
(1491214744.868114) can0 7E8#03410D4100000000
(1491214745.118104) can0 7E8#03410D4100000000
(1491214745.368056) can0 7E8#0441100C15000000
(1491214745.618055) can0 7E8#034104B100000000
(1491214745.868026) can0 7E8#03410D4200000000
(1491214746.118051) can0 7E8#03410D4200000000
(1491214746.368023) can0 7E8#0441100D64000000
(1491214746.618020) can0 7E8#04410C1A04000000
(1491214746.868018) can0 7E8#03410D4300000000
(1491214747.118012) can0 7E8#03410D4400000000
(1491214747.368012) can0 7E8#0441100BD1000000
(1491214747.617977) can0 7E8#0341046900000000
(1491214747.867998) can0 7E8#03410D4400000000
(1491214748.117946) can0 7E8#03410D4400000000
(1491214748.368002) can0 7E8#04411007A1000000
(1491214748.617999) can0 7E8#04410C1974000000
(1491214748.867998) can0 7E8#03410D4400000000
(1491214749.118120) can0 7E8#03410D4400000000
(1491214749.368150) can0 7E8#04411005C3000000
(1491214749.617946) can0 7E8#0341042400000000
(1491214749.867978) can0 7E8#03410D4400000000
(1491214750.117950) can0 7E8#03410D4300000000
(1491214750.367998) can0 7E8#0441100ABA000000
(1491214750.617930) can0 7E8#04410C1910000000
(1491214750.868001) can0 7E8#03410D4300000000
(1491214751.117948) can0 7E8#03410D4300000000
(1491214751.367963) can0 7E8#04411007BD000000
(1491214751.617967) can0 7E8#0341041100000000
(1491214751.867990) can0 7E8#03410D4200000000
(1491214752.117911) can0 7E8#03410D4200000000
(1491214752.367958) can0 7E8#0441100AE3000000
(1491214752.617908) can0 7E8#04410C1875000000
(1491214752.867946) can0 7E8#03410D4100000000
(1491214753.117892) can0 7E8#03410D4100000000
(1491214753.367967) can0 7E8#0441100B05000000
(1491214753.617942) can0 7E8#0341043000000000
(1491214753.867937) can0 7E8#03410D4100000000
(1491214754.117910) can0 7E8#03410D4000000000
(1491214754.367931) can0 7E8#0441100733000000
(1491214754.617860) can0 7E8#04410C17F1000000
(1491214754.867932) can0 7E8#03410D4000000000
(1491214755.118031) can0 7E8#03410D4000000000
(1491214755.367921) can0 7E8#04411006A0000000
(1491214755.617909) can0 7E8#0341046800000000
(1491214755.867925) can0 7E8#03410D4000000000
(1491214756.117895) can0 7E8#03410D4000000000
(1491214756.367919) can0 7E8#04411007B7000000
(1491214756.617832) can0 7E8#04410C18F5000000
(1491214756.867889) can0 7E8#03410D4000000000
(1491214757.117861) can0 7E8#03410D4000000000
(1491214757.367934) can0 7E8#0441100979000000
(1491214757.617857) can0 7E8#0341044800000000
(1491214757.867905) can0 7E8#03410D4000000000
(1491214758.117842) can0 7E8#03410D4000000000
(1491214758.367873) can0 7E8#04411005FE000000
(1491214758.617813) can0 7E8#04410C18B0000000
(1491214758.867857) can0 7E8#03410D4000000000
(1491214759.117830) can0 7E8#03410D4000000000
(1491214759.367880) can0 7E8#044110083A000000
(1491214759.617886) can0 7E8#0341049A00000000
(1491214759.867848) can0 7E8#03410D4100000000
(1491214760.117905) can0 7E8#03410D4100000000
(1491214760.367890) can0 7E8#0441100940000000
(1491214760.617902) can0 7E8#04410C1929000000
(1491214760.868048) can0 7E8#03410D4100000000
(1491214761.117818) can0 7E8#03410D4100000000
(1491214761.368042) can0 7E8#04411009D9000000
(1491214761.617831) can0 7E8#0341048000000000
(1491214761.867862) can0 7E8#03410D4200000000
(1491214762.117810) can0 7E8#03410D4200000000
(1491214762.367832) can0 7E8#0441100772000000
(1491214762.617796) can0 7E8#04410C1917000000
(1491214762.868002) can0 7E8#03410D4200000000
(1491214763.117799) can0 7E8#03410D4200000000
(1491214763.367814) can0 7E8#04411006B6000000
(1491214763.617785) can0 7E8#0341047C00000000
(1491214763.867818) can0 7E8#03410D4200000000
(1491214764.117820) can0 7E8#03410D4200000000
(1491214764.367837) can0 7E8#044110076C000000
(1491214764.617751) can0 7E8#04410C19CB000000
(1491214764.867798) can0 7E8#03410D4200000000
(1491214765.117771) can0 7E8#03410D4200000000
(1491214765.367825) can0 7E8#044110090B000000
(1491214765.617775) can0 7E8#0341049100000000
(1491214765.867812) can0 7E8#03410D4300000000
(1491214766.117793) can0 7E8#03410D4300000000
(1491214766.367848) can0 7E8#044110085F000000
(1491214766.617755) can0 7E8#04410C19EA000000
(1491214766.867810) can0 7E8#03410D4300000000
(1491214767.117783) can0 7E8#03410D4300000000
(1491214767.367832) can0 7E8#044110080B000000
(1491214767.617745) can0 7E8#0341045200000000
(1491214767.867823) can0 7E8#03410D4300000000
(1491214768.117773) can0 7E8#03410D4300000000
(1491214768.367827) can0 7E8#0441100639000000
(1491214768.617733) can0 7E8#04410C190B000000
(1491214768.867765) can0 7E8#03410D4300000000
(1491214769.117754) can0 7E8#03410D4300000000
(1491214769.367801) can0 7E8#0441100640000000
(1491214769.617732) can0 7E8#0341047200000000
(1491214769.867821) can0 7E8#03410D4300000000
(1491214770.117752) can0 7E8#03410D4300000000
(1491214770.367765) can0 7E8#04411006A4000000
(1491214770.617739) can0 7E8#04410C191D000000
(1491214770.867786) can0 7E8#03410D4300000000
(1491214771.117741) can0 7E8#03410D4300000000
(1491214771.367763) can0 7E8#0441100630000000
(1491214771.617704) can0 7E8#0341043200000000
(1491214771.867783) can0 7E8#03410D4200000000
(1491214772.117757) can0 7E8#03410D4200000000
(1491214772.367753) can0 7E8#0441100A9B000000
(1491214772.617698) can0 7E8#04410C1888000000
(1491214772.867765) can0 7E8#03410D4100000000
(1491214773.117710) can0 7E8#03410D4100000000
(1491214773.367944) can0 7E8#04411008DC000000
(1491214773.617682) can0 7E8#0341044100000000
(1491214773.867754) can0 7E8#03410D4100000000
(1491214774.117708) can0 7E8#03410D4100000000
(1491214774.367724) can0 7E8#044110064F000000
(1491214774.617672) can0 7E8#04410C1859000000
(1491214774.867726) can0 7E8#03410D4100000000
(1491214775.117700) can0 7E8#03410D4100000000
(1491214775.367739) can0 7E8#0441100607000000
(1491214775.617686) can0 7E8#0341046900000000
(1491214775.867709) can0 7E8#03410D4000000000
(1491214776.117689) can0 7E8#03410D4000000000
(1491214776.367738) can0 7E8#0441100655000000
(1491214776.617684) can0 7E8#04410C1817000000
(1491214776.867698) can0 7E8#03410D4000000000
(1491214777.117671) can0 7E8#03410D4000000000
(1491214777.367728) can0 7E8#04411005EB000000
(1491214777.617641) can0 7E8#0341045900000000
(1491214777.867689) can0 7E8#03410D4000000000
(1491214778.117670) can0 7E8#03410D4000000000
(1491214778.367708) can0 7E8#044110066E000000
(1491214778.617661) can0 7E8#04410C17C2000000
(1491214778.867702) can0 7E8#03410D3F00000000
(1491214779.117676) can0 7E8#03410D3E00000000
(1491214779.367682) can0 7E8#0441100A15000000
(1491214779.617645) can0 7E8#0341040000000000
(1491214779.867677) can0 7E8#03410D3B00000000
(1491214780.117674) can0 7E8#03410D3A00000000
(1491214780.367697) can0 7E8#0441100972000000
(1491214780.617640) can0 7E8#04410C1522000000
(1491214780.867690) can0 7E8#03410D3800000000
(1491214781.117658) can0 7E8#03410D3700000000
(1491214781.367685) can0 7E8#044110091B000000
(1491214781.617625) can0 7E8#0341040000000000
(1491214781.867704) can0 7E8#03410D3600000000
(1491214782.117633) can0 7E8#03410D3600000000
(1491214782.367667) can0 7E8#04411008D3000000
(1491214782.617615) can0 7E8#04410C1404000000
(1491214782.867661) can0 7E8#03410D3600000000
(1491214783.117634) can0 7E8#03410D3600000000
(1491214783.372635) can0 7E8#0441100704000000
(1491214783.617629) can0 7E8#0341044300000000
(1491214783.867685) can0 7E8#03410D3600000000
(1491214784.117674) can0 7E8#03410D3600000000
(1491214784.367703) can0 7E8#0441100797000000
(1491214784.617594) can0 7E8#04410C13E8000000
(1491214784.867824) can0 7E8#03410D3500000000
(1491214785.117621) can0 7E8#03410D3500000000
(1491214785.367660) can0 7E8#044110087F000000
(1491214785.617583) can0 7E8#0341040800000000
(1491214785.867665) can0 7E8#03410D3400000000
(1491214786.117612) can0 7E8#03410D3400000000
(1491214786.367634) can0 7E8#0441100558000000
(1491214786.617569) can0 7E8#04410C143F000000
(1491214786.867629) can0 7E8#03410D3400000000
(1491214787.117599) can0 7E8#03410D3400000000
(1491214787.367624) can0 7E8#0441100571000000
(1491214787.617588) can0 7E8#0341048000000000
(1491214787.867642) can0 7E8#03410D3400000000
(1491214788.117591) can0 7E8#03410D3400000000
(1491214788.367639) can0 7E8#0441100811000000
(1491214788.617585) can0 7E8#04410C14E3000000
(1491214788.867600) can0 7E8#03410D3500000000
(1491214789.117580) can0 7E8#03410D3500000000
(1491214789.367628) can0 7E8#0441100814000000
(1491214789.617572) can0 7E8#0341049A00000000
(1491214789.867595) can0 7E8#03410D3500000000
(1491214790.117571) can0 7E8#03410D3600000000
(1491214790.367619) can0 7E8#0441100775000000
(1491214790.617662) can0 7E8#04410C14F6000000
(1491214790.867604) can0 7E8#03410D3600000000
(1491214791.117584) can0 7E8#03410D3600000000
(1491214791.367630) can0 7E8#0441100668000000
(1491214791.617529) can0 7E8#0341048E00000000
(1491214791.867593) can0 7E8#03410D3600000000
(1491214792.117550) can0 7E8#03410D3600000000
(1491214792.367598) can0 7E8#044110052D000000
(1491214792.617553) can0 7E8#04410C14E8000000
(1491214792.867593) can0 7E8#03410D3600000000
(1491214793.117539) can0 7E8#03410D3600000000
(1491214793.367578) can0 7E8#04411004B9000000
(1491214793.617526) can0 7E8#0341042800000000
(1491214793.867656) can0 7E8#03410D3600000000
(1491214794.117521) can0 7E8#03410D3600000000
(1491214794.367576) can0 7E8#0441100888000000
(1491214794.617515) can0 7E8#04410C1400000000
(1491214794.872521) can0 7E8#03410D3500000000
(1491214795.117519) can0 7E8#03410D3500000000
(1491214795.372513) can0 7E8#0441100894000000
(1491214795.622539) can0 7E8#0341040000000000
(1491214795.867590) can0 7E8#03410D3300000000
(1491214796.117533) can0 7E8#03410D3200000000
(1491214796.367571) can0 7E8#044110081E000000
(1491214796.617492) can0 7E8#04410C11DA000000
(1491214796.867551) can0 7E8#03410D3000000000
(1491214797.117513) can0 7E8#03410D3000000000
(1491214797.367561) can0 7E8#04411004A0000000
(1491214797.617484) can0 7E8#0341045400000000
(1491214797.867557) can0 7E8#03410D2E00000000
(1491214798.117489) can0 7E8#03410D2E00000000
(1491214798.367502) can0 7E8#04411009B4000000
(1491214798.617523) can0 7E8#04410C1691000000
(1491214798.867546) can0 7E8#03410D2D00000000
(1491214799.117493) can0 7E8#03410D2D00000000
(1491214799.367541) can0 7E8#04411009FF000000
(1491214799.617496) can0 7E8#0341041800000000
(1491214799.867560) can0 7E8#03410D2C00000000
(1491214800.117483) can0 7E8#03410D2C00000000
(1491214800.367682) can0 7E8#04411005C3000000
(1491214800.622461) can0 7E8#04410C1627000000
(1491214800.867536) can0 7E8#03410D2C00000000
(1491214801.117472) can0 7E8#03410D2C00000000
(1491214801.372470) can0 7E8#044110054F000000
(1491214801.622467) can0 7E8#0341044D00000000
(1491214801.872440) can0 7E8#03410D2C00000000
(1491214802.122537) can0 7E8#03410D2B00000000
(1491214802.372519) can0 7E8#0441100542000000
(1491214802.622441) can0 7E8#04410C164A000000
(1491214802.872438) can0 7E8#03410D2B00000000
(1491214803.122484) can0 7E8#03410D2B00000000
(1491214803.372448) can0 7E8#04411005A6000000
(1491214803.622496) can0 7E8#0341044D00000000
(1491214803.867603) can0 7E8#03410D2B00000000
(1491214804.117591) can0 7E8#03410D2B00000000
(1491214804.367598) can0 7E8#0441100827000000
(1491214804.617586) can0 7E8#04410C171A000000
(1491214804.867593) can0 7E8#03410D2C00000000
(1491214805.117583) can0 7E8#03410D2D00000000
(1491214805.372413) can0 7E8#0441100BF0000000
(1491214805.617574) can0 7E8#034104B800000000
(1491214805.867582) can0 7E8#03410D2E00000000
(1491214806.122445) can0 7E8#03410D2F00000000
(1491214806.372440) can0 7E8#0441100E96000000
(1491214806.622415) can0 7E8#04410C1825000000
(1491214806.872488) can0 7E8#03410D3000000000
(1491214807.122435) can0 7E8#03410D3100000000
(1491214807.372416) can0 7E8#0441100F87000000
(1491214807.622469) can0 7E8#034104AB00000000
(1491214807.872413) can0 7E8#03410D3300000000
(1491214808.117456) can0 7E8#03410D3300000000
(1491214808.372403) can0 7E8#04411010F1000000
(1491214808.622569) can0 7E8#04410C1A7D000000
(1491214808.872593) can0 7E8#03410D3500000000
(1491214809.122415) can0 7E8#03410D3600000000
(1491214809.372395) can0 7E8#044110116E000000
(1491214809.622407) can0 7E8#034104A000000000
(1491214809.872382) can0 7E8#03410D3700000000
(1491214810.122439) can0 7E8#03410D3800000000
(1491214810.372377) can0 7E8#04411010D2000000
(1491214810.622408) can0 7E8#04410C1CB5000000
(1491214810.872372) can0 7E8#03410D3900000000
(1491214811.122393) can0 7E8#03410D3900000000
(1491214811.372374) can0 7E8#0441100D32000000
(1491214811.617473) can0 7E8#0341048500000000
(1491214811.872370) can0 7E8#03410D3A00000000
(1491214812.122535) can0 7E8#03410D3A00000000
(1491214812.372389) can0 7E8#0441100AEC000000
(1491214812.622379) can0 7E8#04410C1D7C000000
(1491214812.872389) can0 7E8#03410D3B00000000
(1491214813.122406) can0 7E8#03410D3B00000000
(1491214813.372360) can0 7E8#044110098E000000
(1491214813.622401) can0 7E8#034104C500000000
(1491214813.872348) can0 7E8#03410D3C00000000
(1491214814.122365) can0 7E8#03410D3C00000000
(1491214814.372335) can0 7E8#0441100882000000
(1491214814.622358) can0 7E8#04410C1679000000
(1491214814.872447) can0 7E8#03410D3C00000000
(1491214815.122391) can0 7E8#03410D3C00000000
(1491214815.372334) can0 7E8#04411006FB000000
(1491214815.622379) can0 7E8#0341043B00000000
(1491214815.872320) can0 7E8#03410D3B00000000
(1491214816.122342) can0 7E8#03410D3B00000000
(1491214816.372322) can0 7E8#0441100581000000
(1491214816.622312) can0 7E8#04410C162F000000
(1491214816.872310) can0 7E8#03410D3B00000000
(1491214817.122381) can0 7E8#03410D3B00000000
(1491214817.372305) can0 7E8#0441100514000000
(1491214817.622351) can0 7E8#0341047500000000
(1491214817.872300) can0 7E8#03410D3B00000000
(1491214818.122347) can0 7E8#03410D3B00000000
(1491214818.372302) can0 7E8#0441100687000000
(1491214818.622290) can0 7E8#04410C1772000000
(1491214818.872339) can0 7E8#03410D3B00000000
(1491214819.122409) can0 7E8#03410D3B00000000
(1491214819.372476) can0 7E8#044110099B000000
(1491214819.622509) can0 7E8#034104C900000000
(1491214819.872292) can0 7E8#03410D3C00000000
(1491214820.122326) can0 7E8#03410D3C00000000
(1491214820.372307) can0 7E8#0441100CCB000000
(1491214820.622276) can0 7E8#04410C16F9000000
(1491214820.872276) can0 7E8#03410D3E00000000
(1491214821.122315) can0 7E8#03410D3E00000000
(1491214821.372304) can0 7E8#0441100FE1000000
(1491214821.622285) can0 7E8#034104A100000000
(1491214821.872263) can0 7E8#03410D4000000000
(1491214822.122330) can0 7E8#03410D4000000000
(1491214822.372287) can0 7E8#0441100ED4000000
(1491214822.622281) can0 7E8#04410C1827000000
(1491214822.872328) can0 7E8#03410D4100000000
(1491214823.122303) can0 7E8#03410D4100000000
(1491214823.372358) can0 7E8#0441100D0F000000
(1491214823.622290) can0 7E8#034104C300000000
(1491214823.872292) can0 7E8#03410D4200000000
(1491214824.122293) can0 7E8#03410D4300000000
(1491214824.372265) can0 7E8#0441100EF4000000
(1491214824.622262) can0 7E8#04410C192B000000
(1491214824.872251) can0 7E8#03410D4400000000
(1491214825.122274) can0 7E8#03410D4400000000
(1491214825.372257) can0 7E8#0441100FD2000000
(1491214825.622306) can0 7E8#034104A700000000
(1491214825.872267) can0 7E8#03410D4500000000
(1491214826.122272) can0 7E8#03410D4600000000
(1491214826.372260) can0 7E8#0441100F03000000
(1491214826.622242) can0 7E8#04410C15EF000000
(1491214826.872231) can0 7E8#03410D4700000000
(1491214827.122262) can0 7E8#03410D4700000000
(1491214827.372233) can0 7E8#0441100D12000000
(1491214827.622271) can0 7E8#034104D400000000
(1491214827.872260) can0 7E8#03410D4800000000
(1491214828.122293) can0 7E8#03410D4900000000
(1491214828.372223) can0 7E8#0441100F2F000000
(1491214828.622221) can0 7E8#04410C15EA000000
(1491214828.872234) can0 7E8#03410D4A00000000
(1491214829.122245) can0 7E8#03410D4B00000000
(1491214829.372214) can0 7E8#04411010D5000000
(1491214829.622239) can0 7E8#034104D800000000
(1491214829.872272) can0 7E8#03410D4C00000000
(1491214830.122230) can0 7E8#03410D4C00000000
(1491214830.372287) can0 7E8#0441100FB5000000
(1491214830.622200) can0 7E8#04410C16E5000000
(1491214830.872274) can0 7E8#03410D4D00000000
(1491214831.122402) can0 7E8#03410D4D00000000
(1491214831.372193) can0 7E8#0441100FEE000000
(1491214831.622240) can0 7E8#034104D300000000
(1491214831.872245) can0 7E8#03410D4E00000000
(1491214832.122243) can0 7E8#03410D4F00000000
(1491214832.372205) can0 7E8#044110125F000000
(1491214832.622180) can0 7E8#04410C17B1000000
(1491214832.872218) can0 7E8#03410D5000000000
(1491214833.122191) can0 7E8#03410D5000000000
(1491214833.372223) can0 7E8#04411012B3000000
(1491214833.622210) can0 7E8#034104D700000000
(1491214833.872216) can0 7E8#03410D5200000000
(1491214834.122220) can0 7E8#03410D5200000000
(1491214834.372217) can0 7E8#044110135C000000
(1491214834.622185) can0 7E8#04410C1890000000
(1491214834.872381) can0 7E8#03410D5300000000
(1491214835.122200) can0 7E8#03410D5300000000
(1491214835.372151) can0 7E8#0441101314000000
(1491214835.622224) can0 7E8#034104BF00000000
(1491214835.872137) can0 7E8#03410D5400000000
(1491214836.122277) can0 7E8#03410D5400000000
(1491214836.372182) can0 7E8#0441101278000000
(1491214836.622163) can0 7E8#04410C190A000000
(1491214836.872151) can0 7E8#03410D5400000000
(1491214837.122174) can0 7E8#03410D5400000000
(1491214837.372171) can0 7E8#044110124C000000
(1491214837.622178) can0 7E8#034104B600000000
(1491214837.872166) can0 7E8#03410D5500000000
(1491214838.122165) can0 7E8#03410D5500000000
(1491214838.372235) can0 7E8#0441101220000000
(1491214838.622175) can0 7E8#04410C193A000000
(1491214838.872220) can0 7E8#03410D5500000000
(1491214839.122164) can0 7E8#03410D5500000000
(1491214839.372150) can0 7E8#044110123F000000
(1491214839.622155) can0 7E8#034104B600000000
(1491214839.872121) can0 7E8#03410D5500000000
(1491214840.122152) can0 7E8#03410D5500000000
(1491214840.372156) can0 7E8#04411012D2000000
(1491214840.622172) can0 7E8#04410C193C000000
(1491214840.872120) can0 7E8#03410D5500000000
(1491214841.122139) can0 7E8#03410D5500000000
(1491214841.372130) can0 7E8#04411012EE000000
(1491214841.622137) can0 7E8#034104B300000000
(1491214841.872125) can0 7E8#03410D5500000000
(1491214842.122181) can0 7E8#03410D5400000000
(1491214842.372176) can0 7E8#044110124F000000
(1491214842.622257) can0 7E8#04410C190A000000
(1491214842.872181) can0 7E8#03410D5400000000
(1491214843.122144) can0 7E8#03410D5400000000
(1491214843.372085) can0 7E8#0441101217000000
(1491214843.622115) can0 7E8#034104B500000000
(1491214843.872104) can0 7E8#03410D5400000000
(1491214844.122103) can0 7E8#03410D5400000000
(1491214844.372122) can0 7E8#04411011B6000000
(1491214844.622074) can0 7E8#04410C18EE000000
(1491214844.872078) can0 7E8#03410D5400000000
(1491214845.122117) can0 7E8#03410D5400000000
(1491214845.372089) can0 7E8#044110127E000000
(1491214845.622086) can0 7E8#034104C800000000
(1491214845.872116) can0 7E8#03410D5400000000
(1491214846.122133) can0 7E8#03410D5400000000
(1491214846.372062) can0 7E8#04411012B6000000
(1491214846.622058) can0 7E8#04410C18E4000000
(1491214846.872163) can0 7E8#03410D5400000000
(1491214847.122106) can0 7E8#03410D5400000000
(1491214847.372052) can0 7E8#04411012DC000000
(1491214847.622091) can0 7E8#034104DB00000000
(1491214847.872070) can0 7E8#03410D5400000000
(1491214848.122092) can0 7E8#03410D5400000000
(1491214848.372082) can0 7E8#04411013E8000000
(1491214848.622086) can0 7E8#04410C1900000000
(1491214848.872096) can0 7E8#03410D5400000000
(1491214849.122114) can0 7E8#03410D5400000000
(1491214849.372068) can0 7E8#0441101327000000
(1491214849.622044) can0 7E8#034104CA00000000
(1491214849.872026) can0 7E8#03410D5400000000
(1491214850.122079) can0 7E8#03410D5400000000
(1491214850.372052) can0 7E8#0441101372000000
(1491214850.622043) can0 7E8#04410C191E000000
(1491214850.872015) can0 7E8#03410D5400000000
(1491214851.122055) can0 7E8#03410D5500000000
(1491214851.372036) can0 7E8#0441101446000000
(1491214851.622050) can0 7E8#034104DB00000000
(1491214851.872027) can0 7E8#03410D5500000000
(1491214852.122061) can0 7E8#03410D5500000000
(1491214852.372019) can0 7E8#04411014EF000000
(1491214852.622013) can0 7E8#04410C1961000000
(1491214852.872012) can0 7E8#03410D5600000000
(1491214853.122048) can0 7E8#03410D5600000000
(1491214853.372063) can0 7E8#044110157F000000
(1491214853.622070) can0 7E8#034104D800000000
(1491214853.872010) can0 7E8#03410D5600000000
(1491214854.122038) can0 7E8#03410D5600000000
(1491214854.372021) can0 7E8#0441101534000000
(1491214854.622003) can0 7E8#04410C19B0000000
(1491214854.872090) can0 7E8#03410D5600000000
(1491214855.122022) can0 7E8#03410D5700000000
(1491214855.372008) can0 7E8#044110158E000000
(1491214855.622016) can0 7E8#034104D500000000
(1491214855.871982) can0 7E8#03410D5700000000
(1491214856.122013) can0 7E8#03410D5700000000
(1491214856.372007) can0 7E8#0441101566000000
(1491214856.622006) can0 7E8#04410C1A04000000
(1491214856.871984) can0 7E8#03410D5800000000
(1491214857.122042) can0 7E8#03410D5800000000
(1491214857.372034) can0 7E8#044110153D000000
(1491214857.622239) can0 7E8#034104BA00000000
(1491214857.872015) can0 7E8#03410D5800000000
(1491214858.122048) can0 7E8#03410D5800000000
(1491214858.372038) can0 7E8#044110140B000000
(1491214858.622099) can0 7E8#04410C1A22000000
(1491214858.872098) can0 7E8#03410D5800000000
(1491214859.122099) can0 7E8#03410D5800000000
(1491214859.372129) can0 7E8#04411013C3000000
(1491214859.622157) can0 7E8#034104CB00000000
(1491214859.871996) can0 7E8#03410D5800000000
(1491214860.122019) can0 7E8#03410D5800000000
(1491214860.371958) can0 7E8#044110147E000000
(1491214860.621966) can0 7E8#04410C1A3B000000
(1491214860.871934) can0 7E8#03410D5800000000
(1491214861.122009) can0 7E8#03410D5800000000
(1491214861.371931) can0 7E8#0441101575000000
(1491214861.621985) can0 7E8#034104C800000000
(1491214861.871959) can0 7E8#03410D5900000000
(1491214862.121985) can0 7E8#03410D5900000000
(1491214862.371937) can0 7E8#0441101578000000
(1491214862.621969) can0 7E8#04410C1A7A000000
(1491214862.871992) can0 7E8#03410D5900000000
(1491214863.121945) can0 7E8#03410D5900000000
(1491214863.371912) can0 7E8#044110149B000000
(1491214863.621959) can0 7E8#034104B200000000
(1491214863.871967) can0 7E8#03410D5900000000
(1491214864.121990) can0 7E8#03410D5900000000
(1491214864.371926) can0 7E8#04411013B3000000
(1491214864.621969) can0 7E8#04410C1A84000000
(1491214864.871896) can0 7E8#03410D5900000000
(1491214865.121943) can0 7E8#03410D5900000000
(1491214865.371938) can0 7E8#0441100E51000000
(1491214865.621913) can0 7E8#0341041500000000
(1491214865.871999) can0 7E8#03410D5800000000
(1491214866.121946) can0 7E8#03410D5700000000
(1491214866.371905) can0 7E8#0441100C99000000
(1491214866.621944) can0 7E8#04410C1985000000
(1491214866.871924) can0 7E8#03410D5500000000
(1491214867.121971) can0 7E8#03410D5500000000
(1491214867.371867) can0 7E8#0441100753000000
(1491214867.621917) can0 7E8#0341047300000000
(1491214867.871914) can0 7E8#03410D5400000000
(1491214868.121997) can0 7E8#03410D5300000000
(1491214868.371918) can0 7E8#04411009C4000000
(1491214868.621906) can0 7E8#04410C189C000000
(1491214868.872070) can0 7E8#03410D5300000000
(1491214869.121926) can0 7E8#03410D5200000000
(1491214869.371872) can0 7E8#0441100B1E000000
(1491214869.621920) can0 7E8#034104D100000000
(1491214869.871860) can0 7E8#03410D5200000000
(1491214870.121974) can0 7E8#03410D5200000000
(1491214870.372032) can0 7E8#0441100D38000000
(1491214870.621857) can0 7E8#04410C1853000000
(1491214870.871934) can0 7E8#03410D5200000000
(1491214871.121880) can0 7E8#03410D5200000000
(1491214871.371845) can0 7E8#04411011BF000000
(1491214871.621892) can0 7E8#034104CF00000000
(1491214871.871999) can0 7E8#03410D5200000000
(1491214872.121871) can0 7E8#03410D5300000000
(1491214872.371877) can0 7E8#044110135C000000
(1491214872.621886) can0 7E8#04410C18BE000000
(1491214872.871870) can0 7E8#03410D5300000000
(1491214873.121860) can0 7E8#03410D5400000000
(1491214873.371922) can0 7E8#04411012A7000000
(1491214873.621855) can0 7E8#034104B900000000
(1491214873.871825) can0 7E8#03410D5400000000
(1491214874.121843) can0 7E8#03410D5400000000
(1491214874.371830) can0 7E8#0441101258000000
(1491214874.621837) can0 7E8#04410C1917000000
(1491214874.871942) can0 7E8#03410D5400000000
(1491214875.121855) can0 7E8#03410D5500000000
(1491214875.371828) can0 7E8#044110124C000000
(1491214875.621851) can0 7E8#034104AC00000000
(1491214875.871882) can0 7E8#03410D5500000000
(1491214876.121830) can0 7E8#03410D5500000000
(1491214876.371995) can0 7E8#0441101243000000
(1491214876.621881) can0 7E8#04410C196F000000
(1491214876.871828) can0 7E8#03410D5600000000
(1491214877.122044) can0 7E8#03410D5600000000
(1491214877.371783) can0 7E8#04411012B6000000
(1491214877.621815) can0 7E8#034104B600000000
(1491214877.871886) can0 7E8#03410D5600000000
(1491214878.121850) can0 7E8#03410D5600000000
(1491214878.371797) can0 7E8#044110102C000000
(1491214878.621893) can0 7E8#04410C1969000000
(1491214878.871901) can0 7E8#03410D5500000000
(1491214879.121848) can0 7E8#03410D5300000000
(1491214879.371844) can0 7E8#0441100C6A000000
(1491214879.621842) can0 7E8#0341040000000000
(1491214879.871805) can0 7E8#03410D5100000000
(1491214880.121814) can0 7E8#03410D5100000000
(1491214880.371777) can0 7E8#0441100B3E000000
(1491214880.621798) can0 7E8#04410C17FB000000
(1491214880.871772) can0 7E8#03410D5000000000
(1491214881.121819) can0 7E8#03410D5000000000
(1491214881.371742) can0 7E8#0441100EA9000000
(1491214881.621790) can0 7E8#034104FE00000000
(1491214881.871770) can0 7E8#03410D5100000000
(1491214882.121793) can0 7E8#03410D5200000000
(1491214882.371769) can0 7E8#044110136B000000
(1491214882.621779) can0 7E8#04410C189D000000
(1491214882.871726) can0 7E8#03410D5300000000
(1491214883.121786) can0 7E8#03410D5400000000
(1491214883.371745) can0 7E8#0441101421000000
(1491214883.621768) can0 7E8#034104F600000000
(1491214883.871750) can0 7E8#03410D5500000000
(1491214884.121788) can0 7E8#03410D5600000000
(1491214884.371735) can0 7E8#044110156F000000
(1491214884.621758) can0 7E8#04410C19F8000000
(1491214884.871738) can0 7E8#03410D5800000000
(1491214885.121762) can0 7E8#03410D5800000000
(1491214885.371829) can0 7E8#04411016A1000000
(1491214885.621773) can0 7E8#034104E800000000
(1491214885.871728) can0 7E8#03410D5A00000000
(1491214886.121743) can0 7E8#03410D5A00000000
(1491214886.371740) can0 7E8#04411016E6000000
(1491214886.621721) can0 7E8#04410C1B35000000
(1491214886.871792) can0 7E8#03410D5C00000000
(1491214887.121730) can0 7E8#03410D5C00000000
(1491214887.371712) can0 7E8#04411013C0000000
(1491214887.621777) can0 7E8#0341048900000000
(1491214887.871708) can0 7E8#03410D5D00000000
(1491214888.121730) can0 7E8#03410D5D00000000
(1491214888.371702) can0 7E8#0441100FBF000000
(1491214888.621913) can0 7E8#04410C1B7D000000
(1491214888.871697) can0 7E8#03410D5D00000000
(1491214889.121727) can0 7E8#03410D5D00000000
(1491214889.371684) can0 7E8#0441100A79000000
(1491214889.621723) can0 7E8#0341043D00000000
(1491214889.871691) can0 7E8#03410D5C00000000
(1491214890.121734) can0 7E8#03410D5C00000000
(1491214890.371682) can0 7E8#04411007A7000000
(1491214890.621704) can0 7E8#04410C1B3B000000
(1491214890.871677) can0 7E8#03410D5C00000000
(1491214891.121724) can0 7E8#03410D5B00000000
(1491214891.371662) can0 7E8#04411006E5000000
(1491214891.621721) can0 7E8#0341045400000000
(1491214891.871690) can0 7E8#03410D5B00000000
(1491214892.121737) can0 7E8#03410D5B00000000
(1491214892.371676) can0 7E8#04411006B3000000
(1491214892.621708) can0 7E8#04410C1AFB000000
(1491214892.871681) can0 7E8#03410D5B00000000
(1491214893.121706) can0 7E8#03410D5B00000000
(1491214893.371648) can0 7E8#04411006D9000000
(1491214893.621730) can0 7E8#0341045500000000
(1491214893.871711) can0 7E8#03410D5A00000000
(1491214894.121693) can0 7E8#03410D5A00000000
(1491214894.371640) can0 7E8#0441100711000000
(1491214894.621654) can0 7E8#04410C1AD0000000
(1491214894.871735) can0 7E8#03410D5A00000000
(1491214895.121683) can0 7E8#03410D5A00000000
(1491214895.371646) can0 7E8#044110072D000000
(1491214895.621708) can0 7E8#0341044800000000
(1491214895.871679) can0 7E8#03410D5A00000000
(1491214896.121761) can0 7E8#03410D5A00000000
(1491214896.371660) can0 7E8#04411006F5000000
(1491214896.621658) can0 7E8#04410C1A9D000000
(1491214896.871639) can0 7E8#03410D5A00000000
(1491214897.121661) can0 7E8#03410D5A00000000
(1491214897.371625) can0 7E8#04411006F5000000
(1491214897.621737) can0 7E8#0341044100000000
(1491214897.871597) can0 7E8#03410D5900000000
(1491214898.121651) can0 7E8#03410D5900000000
(1491214898.371625) can0 7E8#0441100797000000
(1491214898.621618) can0 7E8#04410C1AA5000000
(1491214898.871844) can0 7E8#03410D5A00000000
(1491214899.121633) can0 7E8#03410D5A00000000
(1491214899.371605) can0 7E8#0441100B1E000000
(1491214899.621635) can0 7E8#034104A300000000
(1491214899.871638) can0 7E8#03410D5B00000000
(1491214900.121760) can0 7E8#03410D5B00000000
(1491214900.371599) can0 7E8#0441100CE0000000
(1491214900.621590) can0 7E8#04410C1B21000000
(1491214900.871589) can0 7E8#03410D5B00000000
(1491214901.121620) can0 7E8#03410D5B00000000
(1491214901.371592) can0 7E8#0441100D1C000000
(1491214901.621629) can0 7E8#0341049C00000000
(1491214901.871594) can0 7E8#03410D5C00000000
(1491214902.121609) can0 7E8#03410D5C00000000
(1491214902.371587) can0 7E8#0441100CF6000000
(1491214902.621606) can0 7E8#04410C1B9C000000
(1491214902.871652) can0 7E8#03410D5D00000000
(1491214903.121650) can0 7E8#03410D5D00000000
(1491214903.371572) can0 7E8#0441100D03000000
(1491214903.621618) can0 7E8#034104B700000000
(1491214903.871567) can0 7E8#03410D5E00000000
(1491214904.121634) can0 7E8#03410D5F00000000
(1491214904.371593) can0 7E8#0441100D99000000
(1491214904.621615) can0 7E8#04410C1C32000000
(1491214904.871548) can0 7E8#03410D5F00000000
(1491214905.121576) can0 7E8#03410D5F00000000
(1491214905.371541) can0 7E8#04411009F6000000
(1491214905.621573) can0 7E8#0341045300000000
(1491214905.871546) can0 7E8#03410D5F00000000
(1491214906.121614) can0 7E8#03410D5F00000000
(1491214906.371575) can0 7E8#04411007AD000000
(1491214906.621564) can0 7E8#04410C1C5C000000
(1491214906.871535) can0 7E8#03410D6000000000
(1491214907.121582) can0 7E8#03410D6000000000
(1491214907.371522) can0 7E8#0441100862000000
(1491214907.621571) can0 7E8#0341048D00000000
(1491214907.871549) can0 7E8#03410D6000000000
(1491214908.121698) can0 7E8#03410D6000000000
(1491214908.371551) can0 7E8#04411008CA000000
(1491214908.621575) can0 7E8#04410C1C9F000000
(1491214908.871540) can0 7E8#03410D6000000000
(1491214909.121588) can0 7E8#03410D6100000000
(1491214909.371502) can0 7E8#0441100891000000
(1491214909.621573) can0 7E8#0341047700000000
(1491214909.871500) can0 7E8#03410D6100000000
(1491214910.121544) can0 7E8#03410D6100000000
(1491214910.371547) can0 7E8#0441100856000000
(1491214910.621514) can0 7E8#04410C1CC3000000
(1491214910.871657) can0 7E8#03410D6100000000
(1491214911.121542) can0 7E8#03410D6100000000
(1491214911.371489) can0 7E8#044110085C000000
(1491214911.621538) can0 7E8#0341042B00000000
(1491214911.871543) can0 7E8#03410D6100000000
(1491214912.122422) can0 7E8#03410D6100000000
(1491214912.371528) can0 7E8#0441100960000000
(1491214912.621534) can0 7E8#04410C1CAE000000
(1491214912.871496) can0 7E8#03410D6000000000
(1491214913.121514) can0 7E8#03410D6000000000
(1491214913.371509) can0 7E8#0441100824000000
(1491214913.621508) can0 7E8#0341044100000000
(1491214913.871480) can0 7E8#03410D6000000000
(1491214914.121503) can0 7E8#03410D6000000000
(1491214914.372308) can0 7E8#04411007C6000000
(1491214914.621570) can0 7E8#04410C1C88000000
(1491214914.871478) can0 7E8#03410D6000000000
(1491214915.121506) can0 7E8#03410D6000000000
(1491214915.371473) can0 7E8#04411007BA000000
(1491214915.622212) can0 7E8#0341045200000000
(1491214915.871468) can0 7E8#03410D6000000000
(1491214916.121490) can0 7E8#03410D6000000000
(1491214916.371511) can0 7E8#04411007F2000000
(1491214916.622126) can0 7E8#04410C1C49000000
(1491214916.871458) can0 7E8#03410D6000000000
(1491214917.122171) can0 7E8#03410D5F00000000
(1491214917.372094) can0 7E8#0441100D1F000000
(1491214917.622124) can0 7E8#0341040000000000
(1491214917.872094) can0 7E8#03410D5F00000000
(1491214918.122061) can0 7E8#03410D5F00000000
(1491214918.372057) can0 7E8#0441100D6D000000
(1491214918.622056) can0 7E8#04410C1BE4000000
(1491214918.872051) can0 7E8#03410D5E00000000
(1491214919.122049) can0 7E8#03410D5E00000000
(1491214919.372072) can0 7E8#0441100D89000000
(1491214919.622119) can0 7E8#0341040000000000
(1491214919.871977) can0 7E8#03410D5D00000000
(1491214920.122115) can0 7E8#03410D5D00000000
(1491214920.371919) can0 7E8#0441100D57000000
(1491214920.622060) can0 7E8#04410C1B74000000
(1491214920.872616) can0 7E8#03410D5C00000000
(1491214921.121902) can0 7E8#03410D5C00000000
(1491214921.371901) can0 7E8#0441100D19000000
(1491214921.622125) can0 7E8#0341040000000000
(1491214921.872127) can0 7E8#03410D5C00000000
(1491214922.122494) can0 7E8#03410D5B00000000
(1491214922.372731) can0 7E8#0441100CEA000000
(1491214922.622462) can0 7E8#04410C1B08000000
(1491214922.872086) can0 7E8#03410D5B00000000
(1491214923.122435) can0 7E8#03410D5B00000000
(1491214923.372005) can0 7E8#0441100CBE000000
(1491214923.622003) can0 7E8#0341040000000000
(1491214923.871779) can0 7E8#03410D5A00000000
(1491214924.121730) can0 7E8#03410D5A00000000
(1491214924.371696) can0 7E8#0441100CAB000000
(1491214924.621640) can0 7E8#04410C1AB6000000
(1491214924.871699) can0 7E8#03410D5A00000000
(1491214925.121669) can0 7E8#03410D5A00000000
(1491214925.371651) can0 7E8#0441100C92000000
(1491214925.621614) can0 7E8#0341040000000000
(1491214925.871870) can0 7E8#03410D5900000000
(1491214926.121577) can0 7E8#03410D5900000000
(1491214926.371600) can0 7E8#04411009DD000000
(1491214926.621572) can0 7E8#04410C1A6F000000
(1491214926.871545) can0 7E8#03410D5900000000
(1491214927.121618) can0 7E8#03410D5900000000
(1491214927.371623) can0 7E8#04411006F8000000
(1491214927.621537) can0 7E8#0341045700000000
(1491214927.871616) can0 7E8#03410D5900000000
(1491214928.121508) can0 7E8#03410D5900000000
(1491214928.371555) can0 7E8#0441100778000000
(1491214928.621452) can0 7E8#04410C1A8D000000
(1491214928.871499) can0 7E8#03410D5900000000
(1491214929.121472) can0 7E8#03410D5A00000000
(1491214929.371483) can0 7E8#04411006FE000000
(1491214929.621420) can0 7E8#0341042D00000000
(1491214929.871464) can0 7E8#03410D5A00000000
(1491214930.121425) can0 7E8#03410D5A00000000
(1491214930.371333) can0 7E8#04411006AA000000
(1491214930.621356) can0 7E8#04410C1AA3000000
(1491214930.871551) can0 7E8#03410D5A00000000
(1491214931.121377) can0 7E8#03410D5A00000000
(1491214931.371323) can0 7E8#0441100C09000000
(1491214931.621395) can0 7E8#0341040000000000
(1491214931.871343) can0 7E8#03410D5A00000000
(1491214932.121389) can0 7E8#03410D5A00000000
(1491214932.371513) can0 7E8#0441100C67000000
(1491214932.621316) can0 7E8#04410C1A96000000
(1491214932.871308) can0 7E8#03410D5900000000
(1491214933.121355) can0 7E8#03410D5900000000
(1491214933.371409) can0 7E8#0441100C9C000000
(1491214933.621499) can0 7E8#0341040000000000
(1491214933.871522) can0 7E8#03410D5900000000
(1491214934.121519) can0 7E8#03410D5800000000
(1491214934.371718) can0 7E8#0441100C3E000000
(1491214934.621439) can0 7E8#04410C19F9000000
(1491214934.871437) can0 7E8#03410D5700000000
(1491214935.121309) can0 7E8#03410D5700000000
(1491214935.371431) can0 7E8#0441100C25000000
(1491214935.621339) can0 7E8#0341040000000000
(1491214935.871353) can0 7E8#03410D5700000000
(1491214936.121305) can0 7E8#03410D5700000000
(1491214936.371348) can0 7E8#0441100C09000000
(1491214936.621302) can0 7E8#04410C199F000000
(1491214936.871273) can0 7E8#03410D5600000000
(1491214937.121313) can0 7E8#03410D5600000000
(1491214937.371287) can0 7E8#0441100BCA000000
(1491214937.621296) can0 7E8#0341040000000000
(1491214937.871270) can0 7E8#03410D5500000000
(1491214938.121318) can0 7E8#03410D5500000000
(1491214938.371474) can0 7E8#0441100BB1000000
(1491214938.621307) can0 7E8#04410C18D4000000
(1491214938.871254) can0 7E8#03410D5300000000
(1491214939.121294) can0 7E8#03410D5300000000
(1491214939.371424) can0 7E8#0441100B44000000
(1491214939.621259) can0 7E8#0341040000000000
(1491214939.871244) can0 7E8#03410D5200000000
(1491214940.121282) can0 7E8#03410D5200000000
(1491214940.371414) can0 7E8#0441100B15000000
(1491214940.621254) can0 7E8#04410C181C000000
(1491214940.871262) can0 7E8#03410D5100000000
(1491214941.121273) can0 7E8#03410D5000000000
(1491214941.371345) can0 7E8#0441100AC1000000
(1491214941.621257) can0 7E8#0341040000000000
(1491214941.871215) can0 7E8#03410D4F00000000
(1491214942.121285) can0 7E8#03410D4E00000000
(1491214942.371303) can0 7E8#0441100A79000000
(1491214942.621231) can0 7E8#04410C16F1000000
(1491214942.871288) can0 7E8#03410D4D00000000
(1491214943.121251) can0 7E8#03410D4C00000000
(1491214943.371424) can0 7E8#0441100A21000000
(1491214943.621246) can0 7E8#0341040000000000
(1491214943.871218) can0 7E8#03410D4B00000000
(1491214944.121241) can0 7E8#03410D4B00000000
(1491214944.371461) can0 7E8#04411009EC000000
(1491214944.621210) can0 7E8#04410C1625000000
(1491214944.871208) can0 7E8#03410D4A00000000
(1491214945.121245) can0 7E8#03410D4A00000000
(1491214945.371279) can0 7E8#04411009B4000000
(1491214945.621333) can0 7E8#0341040000000000
(1491214945.871256) can0 7E8#03410D4700000000
(1491214946.121330) can0 7E8#03410D4600000000
(1491214946.371202) can0 7E8#044110092E000000
(1491214946.621188) can0 7E8#04410C14AC000000
(1491214946.871188) can0 7E8#03410D4500000000
(1491214947.121210) can0 7E8#03410D4500000000
(1491214947.371183) can0 7E8#0441100562000000
(1491214947.621204) can0 7E8#0341041500000000
(1491214947.871185) can0 7E8#03410D4300000000
(1491214948.121210) can0 7E8#03410D4300000000
(1491214948.371181) can0 7E8#04411008C3000000
(1491214948.621215) can0 7E8#04410C1892000000
(1491214948.871208) can0 7E8#03410D4200000000
(1491214949.121188) can0 7E8#03410D4200000000
(1491214949.371186) can0 7E8#0441100AF6000000
(1491214949.621169) can0 7E8#0341040000000000
(1491214949.871156) can0 7E8#03410D4000000000
(1491214950.121179) can0 7E8#03410D3F00000000
(1491214950.371150) can0 7E8#0441100A92000000
(1491214950.621172) can0 7E8#04410C16E0000000
(1491214950.871222) can0 7E8#03410D3C00000000
(1491214951.121169) can0 7E8#03410D3C00000000
(1491214951.371150) can0 7E8#04411009EF000000
(1491214951.621188) can0 7E8#0341040000000000
(1491214951.871160) can0 7E8#03410D3900000000
(1491214952.121208) can0 7E8#03410D3900000000
(1491214952.371155) can0 7E8#044110097F000000
(1491214952.621153) can0 7E8#04410C14CA000000
(1491214952.871191) can0 7E8#03410D3700000000
(1491214953.121181) can0 7E8#03410D3700000000
(1491214953.371129) can0 7E8#0441100594000000
(1491214953.621176) can0 7E8#0341040C00000000
(1491214953.871123) can0 7E8#03410D3700000000
(1491214954.121140) can0 7E8#03410D3700000000
(1491214954.371117) can0 7E8#0441100B15000000
(1491214954.621132) can0 7E8#04410C1AC1000000
(1491214954.871129) can0 7E8#03410D3600000000
(1491214955.121250) can0 7E8#03410D3500000000
(1491214955.371109) can0 7E8#0441100C86000000
(1491214955.621148) can0 7E8#0341040000000000
(1491214955.871128) can0 7E8#03410D3500000000
(1491214956.121166) can0 7E8#03410D3500000000
(1491214956.371104) can0 7E8#0441100C4E000000
(1491214956.621346) can0 7E8#04410C1A59000000
(1491214956.871308) can0 7E8#03410D3400000000
(1491214957.121306) can0 7E8#03410D3400000000
(1491214957.371139) can0 7E8#04411007CC000000
(1491214957.621109) can0 7E8#0341043800000000
(1491214957.871324) can0 7E8#03410D3500000000
(1491214958.121270) can0 7E8#03410D3400000000
(1491214958.371249) can0 7E8#0441100BEA000000
(1491214958.621341) can0 7E8#04410C1A20000000
(1491214958.871221) can0 7E8#03410D3400000000
(1491214959.121245) can0 7E8#03410D3400000000
(1491214959.371208) can0 7E8#0441100814000000
(1491214959.621206) can0 7E8#0341040900000000
(1491214959.871203) can0 7E8#03410D3400000000
(1491214960.121209) can0 7E8#03410D3400000000
(1491214960.371197) can0 7E8#0441100C1C000000
(1491214960.621195) can0 7E8#04410C1A00000000
(1491214960.871227) can0 7E8#03410D3400000000
(1491214961.121214) can0 7E8#03410D3400000000
(1491214961.371286) can0 7E8#0441100778000000
(1491214961.621234) can0 7E8#0341043800000000
(1491214961.871164) can0 7E8#03410D3400000000
(1491214962.121154) can0 7E8#03410D3400000000
(1491214962.371192) can0 7E8#04411006F8000000
(1491214962.621200) can0 7E8#04410C1A7C000000
(1491214962.871235) can0 7E8#03410D3500000000
(1491214963.121244) can0 7E8#03410D3500000000
(1491214963.371275) can0 7E8#0441100817000000
(1491214963.621315) can0 7E8#0341049100000000
(1491214963.871297) can0 7E8#03410D3600000000
(1491214964.121258) can0 7E8#03410D3700000000
(1491214964.371264) can0 7E8#0441100B15000000
(1491214964.621255) can0 7E8#04410C1C00000000
(1491214964.871260) can0 7E8#03410D3800000000
(1491214965.121224) can0 7E8#03410D3900000000
(1491214965.371229) can0 7E8#0441100EC8000000
(1491214965.621333) can0 7E8#0341049800000000
(1491214965.871258) can0 7E8#03410D3A00000000
(1491214966.121262) can0 7E8#03410D3B00000000
(1491214966.371070) can0 7E8#0441100E96000000
(1491214966.621058) can0 7E8#04410C1DF4000000
(1491214966.871130) can0 7E8#03410D3C00000000
(1491214967.121086) can0 7E8#03410D3C00000000
(1491214967.371060) can0 7E8#0441100C0F000000
(1491214967.621072) can0 7E8#034104BA00000000
(1491214967.871054) can0 7E8#03410D3E00000000
(1491214968.121042) can0 7E8#03410D3F00000000
(1491214968.371048) can0 7E8#0441100C83000000
(1491214968.621052) can0 7E8#04410C18EB000000
(1491214968.871072) can0 7E8#03410D4000000000
(1491214969.121032) can0 7E8#03410D4000000000
(1491214969.371056) can0 7E8#0441100B66000000
(1491214969.621054) can0 7E8#034104B200000000
(1491214969.871066) can0 7E8#03410D4100000000
(1491214970.121046) can0 7E8#03410D4200000000
(1491214970.370968) can0 7E8#0441100A3A000000
(1491214970.620992) can0 7E8#04410C199D000000
(1491214970.870989) can0 7E8#03410D4200000000
(1491214971.121011) can0 7E8#03410D4300000000
(1491214971.370973) can0 7E8#044110082D000000
(1491214971.621007) can0 7E8#0341048600000000
(1491214971.870980) can0 7E8#03410D4300000000
(1491214972.120995) can0 7E8#03410D4300000000
(1491214972.370983) can0 7E8#0441100808000000
(1491214972.620971) can0 7E8#04410C1A49000000
(1491214972.870944) can0 7E8#03410D4400000000
(1491214973.120966) can0 7E8#03410D4400000000
(1491214973.370966) can0 7E8#0441100A08000000
(1491214973.620986) can0 7E8#034104AD00000000
(1491214973.870967) can0 7E8#03410D4500000000
(1491214974.120980) can0 7E8#03410D4500000000
(1491214974.370938) can0 7E8#04411008B7000000
(1491214974.620949) can0 7E8#04410C1B4A000000
(1491214974.871022) can0 7E8#03410D4600000000
(1491214975.120979) can0 7E8#03410D4600000000
(1491214975.370927) can0 7E8#04411009E9000000
(1491214975.620973) can0 7E8#0341049C00000000
(1491214975.870930) can0 7E8#03410D4700000000
(1491214976.120959) can0 7E8#03410D4700000000
(1491214976.370931) can0 7E8#0441100A82000000
(1491214976.620968) can0 7E8#04410C1AC5000000
(1491214976.870936) can0 7E8#03410D4800000000
(1491214977.120982) can0 7E8#03410D4800000000
(1491214977.370940) can0 7E8#04411007F2000000
(1491214977.620927) can0 7E8#034104A500000000
(1491214977.870925) can0 7E8#03410D4800000000
(1491214978.120937) can0 7E8#03410D4800000000
(1491214978.370960) can0 7E8#04411008CA000000
(1491214978.620933) can0 7E8#04410C16E6000000
(1491214978.870915) can0 7E8#03410D4900000000
(1491214979.120953) can0 7E8#03410D4900000000
(1491214979.370910) can0 7E8#0441100A28000000
(1491214979.620923) can0 7E8#034104BC00000000
(1491214979.870895) can0 7E8#03410D4A00000000
(1491214980.120977) can0 7E8#03410D4A00000000
(1491214980.370892) can0 7E8#04411008A7000000
(1491214980.620912) can0 7E8#04410C16E7000000
(1491214980.871019) can0 7E8#03410D4A00000000
(1491214981.120932) can0 7E8#03410D4A00000000
(1491214981.371186) can0 7E8#04411007B0000000
(1491214981.620886) can0 7E8#0341049800000000
(1491214981.870883) can0 7E8#03410D4B00000000
(1491214982.120929) can0 7E8#03410D4B00000000
(1491214982.370870) can0 7E8#0441100717000000
(1491214982.620945) can0 7E8#04410C1713000000
(1491214982.870997) can0 7E8#03410D4B00000000
(1491214983.120920) can0 7E8#03410D4B00000000
(1491214983.370860) can0 7E8#0441100746000000
(1491214983.620883) can0 7E8#0341049700000000
(1491214983.870863) can0 7E8#03410D4B00000000
(1491214984.120911) can0 7E8#03410D4B00000000
(1491214984.370882) can0 7E8#0441100694000000
(1491214984.620897) can0 7E8#04410C168B000000
(1491214984.870935) can0 7E8#03410D4B00000000
(1491214985.120867) can0 7E8#03410D4B00000000
(1491214985.370839) can0 7E8#04411005B0000000
(1491214985.620845) can0 7E8#0341048900000000
(1491214985.870842) can0 7E8#03410D4B00000000
(1491214986.120866) can0 7E8#03410D4B00000000
(1491214986.370862) can0 7E8#0441100633000000
(1491214986.620850) can0 7E8#04410C1709000000
(1491214986.870848) can0 7E8#03410D4B00000000
(1491214987.120869) can0 7E8#03410D4B00000000
(1491214987.370827) can0 7E8#04411006D9000000
(1491214987.620849) can0 7E8#0341048700000000
(1491214987.870821) can0 7E8#03410D4B00000000
(1491214988.120893) can0 7E8#03410D4B00000000
(1491214988.370845) can0 7E8#04411006EF000000
(1491214988.620829) can0 7E8#04410C178B000000
(1491214988.870844) can0 7E8#03410D4B00000000
(1491214989.120866) can0 7E8#03410D4C00000000
(1491214989.370804) can0 7E8#0441100872000000
(1491214989.620828) can0 7E8#0341049400000000
(1491214989.870816) can0 7E8#03410D4C00000000
(1491214990.120848) can0 7E8#03410D4C00000000
(1491214990.370821) can0 7E8#0441100840000000
(1491214990.620868) can0 7E8#04410C17A7000000
(1491214990.870890) can0 7E8#03410D4C00000000
(1491214991.120857) can0 7E8#03410D4C00000000
(1491214991.370840) can0 7E8#04411009EC000000
(1491214991.620807) can0 7E8#034104D500000000
(1491214991.870804) can0 7E8#03410D4D00000000
(1491214992.120828) can0 7E8#03410D4D00000000
(1491214992.370826) can0 7E8#0441100D6A000000
(1491214992.620847) can0 7E8#04410C172C000000
(1491214992.870967) can0 7E8#03410D4E00000000
(1491214993.120815) can0 7E8#03410D4E00000000
(1491214993.370791) can0 7E8#0441100F58000000
(1491214993.620820) can0 7E8#034104B100000000
(1491214993.870785) can0 7E8#03410D5000000000
(1491214994.120823) can0 7E8#03410D5000000000
(1491214994.370779) can0 7E8#0441100F74000000
(1491214994.620807) can0 7E8#04410C17F9000000
(1491214994.870766) can0 7E8#03410D5100000000
(1491214995.120821) can0 7E8#03410D5100000000
(1491214995.370782) can0 7E8#0441100F42000000
(1491214995.620811) can0 7E8#034104A800000000
(1491214995.870730) can0 7E8#03410D5200000000
(1491214996.120811) can0 7E8#03410D5200000000
(1491214996.370758) can0 7E8#0441100E1F000000
(1491214996.620753) can0 7E8#04410C18B7000000
(1491214996.870745) can0 7E8#03410D5300000000
(1491214997.120826) can0 7E8#03410D5400000000
(1491214997.370781) can0 7E8#0441100D6A000000
(1491214997.620787) can0 7E8#034104B400000000
(1491214997.870740) can0 7E8#03410D5400000000
(1491214998.120765) can0 7E8#03410D5500000000
(1491214998.370763) can0 7E8#0441100D44000000
(1491214998.620759) can0 7E8#04410C1944000000
(1491214998.870824) can0 7E8#03410D5500000000
(1491214999.120746) can0 7E8#03410D5500000000
(1491214999.370744) can0 7E8#0441100CDA000000
(1491214999.620773) can0 7E8#034104BD00000000
(1491214999.870722) can0 7E8#03410D5600000000
(1491215000.120745) can0 7E8#03410D5600000000
(1491215000.370718) can0 7E8#0441100BE3000000
(1491215000.620740) can0 7E8#04410C19BB000000
(1491215000.870712) can0 7E8#03410D5700000000
(1491215001.120752) can0 7E8#03410D5700000000
(1491215001.370722) can0 7E8#04411009C0000000
(1491215001.620721) can0 7E8#0341049000000000
(1491215001.870702) can0 7E8#03410D5700000000
(1491215002.120749) can0 7E8#03410D5700000000
(1491215002.370694) can0 7E8#0441100840000000
(1491215002.620709) can0 7E8#04410C19E8000000
(1491215002.870692) can0 7E8#03410D5700000000
(1491215003.120731) can0 7E8#03410D5700000000
(1491215003.370685) can0 7E8#044110082A000000
(1491215003.620733) can0 7E8#0341049A00000000
(1491215003.870706) can0 7E8#03410D5700000000
(1491215004.120895) can0 7E8#03410D5700000000
(1491215004.370817) can0 7E8#04411006F8000000
(1491215004.620689) can0 7E8#04410C19ED000000
(1491215004.870687) can0 7E8#03410D5700000000
(1491215005.120691) can0 7E8#03410D5700000000
(1491215005.370671) can0 7E8#04411006E8000000
(1491215005.620729) can0 7E8#0341048D00000000
(1491215005.870695) can0 7E8#03410D5700000000
(1491215006.120738) can0 7E8#03410D5700000000
(1491215006.370670) can0 7E8#0441100975000000
(1491215006.620676) can0 7E8#04410C19F9000000
(1491215006.870750) can0 7E8#03410D5700000000
(1491215007.120695) can0 7E8#03410D5800000000
(1491215007.370644) can0 7E8#0441100A7F000000
(1491215007.620684) can0 7E8#034104B500000000
(1491215007.870639) can0 7E8#03410D5800000000
(1491215008.120702) can0 7E8#03410D5800000000
(1491215008.370651) can0 7E8#0441100B79000000
(1491215008.620650) can0 7E8#04410C1A38000000
(1491215008.870627) can0 7E8#03410D5800000000
(1491215009.120667) can0 7E8#03410D5800000000
(1491215009.370639) can0 7E8#0441100A3A000000
(1491215009.620638) can0 7E8#0341049700000000
(1491215009.870610) can0 7E8#03410D5900000000
(1491215010.120714) can0 7E8#03410D5900000000
(1491215010.370639) can0 7E8#0441100924000000
(1491215010.620642) can0 7E8#04410C1A63000000
(1491215010.870609) can0 7E8#03410D5900000000
(1491215011.120648) can0 7E8#03410D5900000000
(1491215011.370619) can0 7E8#0441100885000000
(1491215011.620675) can0 7E8#0341048C00000000
(1491215011.870623) can0 7E8#03410D5900000000
(1491215012.120646) can0 7E8#03410D5900000000
(1491215012.370677) can0 7E8#0441100888000000
(1491215012.620640) can0 7E8#04410C1A78000000
(1491215012.870614) can0 7E8#03410D5900000000
(1491215013.120682) can0 7E8#03410D5900000000
(1491215013.370589) can0 7E8#0441100778000000
(1491215013.620628) can0 7E8#034104A700000000
(1491215013.870602) can0 7E8#03410D5900000000
(1491215014.120625) can0 7E8#03410D5900000000
(1491215014.370595) can0 7E8#04411009EC000000
(1491215014.620616) can0 7E8#04410C1A93000000
(1491215014.870641) can0 7E8#03410D5900000000
(1491215015.120621) can0 7E8#03410D5900000000
(1491215015.370575) can0 7E8#0441100AD0000000
(1491215015.620650) can0 7E8#034104A100000000
(1491215015.870584) can0 7E8#03410D5A00000000
(1491215016.120601) can0 7E8#03410D5A00000000
(1491215016.370585) can0 7E8#0441100ACA000000
(1491215016.620636) can0 7E8#04410C1AB7000000
(1491215016.870598) can0 7E8#03410D5A00000000
(1491215017.120594) can0 7E8#03410D5A00000000
(1491215017.370577) can0 7E8#0441100AC7000000
(1491215017.620588) can0 7E8#034104C500000000
(1491215017.870598) can0 7E8#03410D5A00000000
(1491215018.120586) can0 7E8#03410D5B00000000
(1491215018.370558) can0 7E8#0441100D25000000
(1491215018.620572) can0 7E8#04410C1AFA000000
(1491215018.870561) can0 7E8#03410D5B00000000
(1491215019.120602) can0 7E8#03410D5B00000000
(1491215019.370558) can0 7E8#0441100E1F000000
(1491215019.620568) can0 7E8#0341048E00000000
(1491215019.870534) can0 7E8#03410D5B00000000
(1491215020.120611) can0 7E8#03410D5B00000000
(1491215020.370549) can0 7E8#0441100B05000000
(1491215020.620595) can0 7E8#04410C1B22000000
(1491215020.870535) can0 7E8#03410D5B00000000
(1491215021.120552) can0 7E8#03410D5B00000000
(1491215021.370517) can0 7E8#04411009EF000000
(1491215021.620572) can0 7E8#0341049C00000000
(1491215021.870514) can0 7E8#03410D5B00000000
(1491215022.120582) can0 7E8#03410D5B00000000
(1491215022.370508) can0 7E8#04411009F9000000
(1491215022.620535) can0 7E8#04410C1B22000000
(1491215022.870607) can0 7E8#03410D5B00000000
(1491215023.120562) can0 7E8#03410D5B00000000
(1491215023.370536) can0 7E8#0441100B82000000
(1491215023.620552) can0 7E8#034104AC00000000
(1491215023.870507) can0 7E8#03410D5C00000000
(1491215024.120546) can0 7E8#03410D5C00000000
(1491215024.370499) can0 7E8#0441100BB8000000
(1491215024.620522) can0 7E8#04410C1B37000000
(1491215024.870507) can0 7E8#03410D5C00000000
(1491215025.120535) can0 7E8#03410D5C00000000
(1491215025.370594) can0 7E8#0441100915000000
(1491215025.620531) can0 7E8#0341045E00000000
(1491215025.870486) can0 7E8#03410D5B00000000
(1491215026.120525) can0 7E8#03410D5B00000000
(1491215026.370464) can0 7E8#0441100746000000
(1491215026.620511) can0 7E8#04410C1B12000000
(1491215026.870692) can0 7E8#03410D5B00000000
(1491215027.120521) can0 7E8#03410D5B00000000
(1491215027.370453) can0 7E8#044110072A000000
(1491215027.620523) can0 7E8#034104A400000000
(1491215027.870466) can0 7E8#03410D5B00000000
(1491215028.120505) can0 7E8#03410D5B00000000
(1491215028.370469) can0 7E8#0441100985000000
(1491215028.620474) can0 7E8#04410C1B00000000
(1491215028.870440) can0 7E8#03410D5B00000000
(1491215029.120484) can0 7E8#03410D5B00000000
(1491215029.370476) can0 7E8#0441100AE0000000
(1491215029.620464) can0 7E8#034104A300000000
(1491215029.870426) can0 7E8#03410D5B00000000
(1491215030.120485) can0 7E8#03410D5B00000000
(1491215030.370458) can0 7E8#0441100A3A000000
(1491215030.620454) can0 7E8#04410C1B08000000
(1491215030.870533) can0 7E8#03410D5B00000000
(1491215031.120471) can0 7E8#03410D5B00000000
(1491215031.370473) can0 7E8#04411009C0000000
(1491215031.620484) can0 7E8#0341049300000000
(1491215031.870481) can0 7E8#03410D5B00000000
(1491215032.120488) can0 7E8#03410D5B00000000
(1491215032.370425) can0 7E8#0441100A5D000000
(1491215032.620459) can0 7E8#04410C1AF7000000
(1491215032.870429) can0 7E8#03410D5B00000000
(1491215033.120502) can0 7E8#03410D5B00000000
(1491215033.370458) can0 7E8#0441100D5D000000
(1491215033.620454) can0 7E8#034104AA00000000
(1491215033.870415) can0 7E8#03410D5B00000000
(1491215034.120491) can0 7E8#03410D5B00000000
(1491215034.370440) can0 7E8#0441100D5D000000
(1491215034.620413) can0 7E8#04410C1B46000000
(1491215034.870403) can0 7E8#03410D5C00000000
(1491215035.120433) can0 7E8#03410D5C00000000
(1491215035.370396) can0 7E8#0441100BF6000000
(1491215035.620476) can0 7E8#034104A100000000
(1491215035.870406) can0 7E8#03410D5C00000000
(1491215036.120422) can0 7E8#03410D5C00000000
(1491215036.370861) can0 7E8#0441100AC4000000
(1491215036.620866) can0 7E8#04410C1B60000000
(1491215036.870880) can0 7E8#03410D5C00000000
(1491215037.120460) can0 7E8#03410D5C00000000
(1491215037.370400) can0 7E8#0441100CD1000000
(1491215037.620724) can0 7E8#0341047C00000000
(1491215037.870426) can0 7E8#03410D5C00000000
(1491215038.120524) can0 7E8#03410D5C00000000
(1491215038.370538) can0 7E8#044110092A000000
(1491215038.620887) can0 7E8#04410C1B4A000000
(1491215038.870909) can0 7E8#03410D5C00000000
(1491215039.120907) can0 7E8#03410D5C00000000
(1491215039.370429) can0 7E8#0441100CBE000000
(1491215039.620459) can0 7E8#0341040000000000
(1491215039.870473) can0 7E8#03410D5B00000000
(1491215040.120484) can0 7E8#03410D5A00000000
(1491215040.370470) can0 7E8#0441100CCE000000
(1491215040.620725) can0 7E8#04410C1AA0000000
(1491215040.870695) can0 7E8#03410D5900000000
(1491215041.120787) can0 7E8#03410D5900000000
(1491215041.370741) can0 7E8#0441100C95000000
(1491215041.620781) can0 7E8#0341040000000000
(1491215041.870786) can0 7E8#03410D5800000000
(1491215042.120779) can0 7E8#03410D5800000000
(1491215042.370818) can0 7E8#0441100C3E000000
(1491215042.620778) can0 7E8#04410C19E8000000
(1491215042.870769) can0 7E8#03410D5700000000
(1491215043.120790) can0 7E8#03410D5700000000
(1491215043.370772) can0 7E8#04411009EC000000
(1491215043.620769) can0 7E8#0341044100000000
(1491215043.870782) can0 7E8#03410D5600000000
(1491215044.120780) can0 7E8#03410D5600000000
(1491215044.370753) can0 7E8#0441100869000000
(1491215044.621050) can0 7E8#04410C198A000000
(1491215044.870680) can0 7E8#03410D5600000000
(1491215045.120678) can0 7E8#03410D5600000000
(1491215045.370642) can0 7E8#0441100891000000
(1491215045.620652) can0 7E8#0341047200000000
(1491215045.870644) can0 7E8#03410D5600000000
(1491215046.120635) can0 7E8#03410D5600000000
(1491215046.370632) can0 7E8#044110077E000000
(1491215046.620379) can0 7E8#04410C1960000000
(1491215046.870378) can0 7E8#03410D5500000000
(1491215047.120381) can0 7E8#03410D5500000000
(1491215047.370345) can0 7E8#044110062A000000
(1491215047.620352) can0 7E8#0341040F00000000
(1491215047.870356) can0 7E8#03410D5400000000
(1491215048.120389) can0 7E8#03410D5400000000
(1491215048.370312) can0 7E8#0441100B28000000
(1491215048.620309) can0 7E8#04410C18E6000000
(1491215048.870322) can0 7E8#03410D5400000000
(1491215049.120329) can0 7E8#03410D5300000000
(1491215049.370300) can0 7E8#0441100727000000
(1491215049.620757) can0 7E8#0341044400000000
(1491215049.870271) can0 7E8#03410D5300000000
(1491215050.120326) can0 7E8#03410D5300000000
(1491215050.370290) can0 7E8#044110066B000000
(1491215050.620713) can0 7E8#04410C189A000000
(1491215050.870303) can0 7E8#03410D5300000000
(1491215051.120317) can0 7E8#03410D5200000000
(1491215051.370281) can0 7E8#04411007B0000000
(1491215051.620310) can0 7E8#0341049E00000000
(1491215051.870251) can0 7E8#03410D5200000000
(1491215052.120307) can0 7E8#03410D5300000000
(1491215052.370245) can0 7E8#0441100A53000000
(1491215052.620345) can0 7E8#04410C189F000000
(1491215052.870273) can0 7E8#03410D5300000000
(1491215053.120268) can0 7E8#03410D5300000000
(1491215053.370242) can0 7E8#044110090B000000
(1491215053.620257) can0 7E8#0341046B00000000
(1491215053.870237) can0 7E8#03410D5300000000
(1491215054.120253) can0 7E8#03410D5300000000
(1491215054.370249) can0 7E8#04411006A4000000
(1491215054.620345) can0 7E8#04410C187D000000
(1491215054.870292) can0 7E8#03410D5200000000
(1491215055.120250) can0 7E8#03410D5200000000
(1491215055.370222) can0 7E8#04411005DC000000
(1491215055.620269) can0 7E8#0341044900000000
(1491215055.870217) can0 7E8#03410D5200000000
(1491215056.120240) can0 7E8#03410D5200000000
(1491215056.370212) can0 7E8#0441100565000000
(1491215056.620239) can0 7E8#04410C182A000000
(1491215056.870198) can0 7E8#03410D5100000000
(1491215057.120284) can0 7E8#03410D5100000000
(1491215057.370202) can0 7E8#044110070B000000
(1491215057.620223) can0 7E8#0341049500000000
(1491215057.870194) can0 7E8#03410D5100000000
(1491215058.120244) can0 7E8#03410D5100000000
(1491215058.370192) can0 7E8#04411008CA000000
(1491215058.620286) can0 7E8#04410C1803000000
(1491215058.870186) can0 7E8#03410D5100000000
(1491215059.120257) can0 7E8#03410D5100000000
(1491215059.370281) can0 7E8#04411008E9000000
(1491215059.620194) can0 7E8#0341049100000000
(1491215059.870217) can0 7E8#03410D5100000000
(1491215060.120199) can0 7E8#03410D5100000000
(1491215060.370288) can0 7E8#0441100862000000
(1491215060.620242) can0 7E8#04410C1802000000
(1491215060.870215) can0 7E8#03410D5100000000
(1491215061.120301) can0 7E8#03410D5100000000
(1491215061.370153) can0 7E8#044110072A000000
(1491215061.620224) can0 7E8#0341047900000000
(1491215061.870155) can0 7E8#03410D5000000000
(1491215062.120378) can0 7E8#03410D5000000000
(1491215062.370158) can0 7E8#04411006A7000000
(1491215062.620172) can0 7E8#04410C17DD000000
(1491215062.870245) can0 7E8#03410D5000000000
(1491215063.120217) can0 7E8#03410D5000000000
(1491215063.370165) can0 7E8#04411006DF000000
(1491215063.620163) can0 7E8#0341045400000000
(1491215063.870134) can0 7E8#03410D5000000000
(1491215064.120173) can0 7E8#03410D5000000000
(1491215064.370145) can0 7E8#044110076C000000
(1491215064.620168) can0 7E8#04410C178E000000
(1491215064.870114) can0 7E8#03410D4F00000000
(1491215065.120200) can0 7E8#03410D4F00000000
(1491215065.370112) can0 7E8#0441100A5A000000
(1491215065.620174) can0 7E8#0341040000000000
(1491215065.870111) can0 7E8#03410D4E00000000
(1491215066.120158) can0 7E8#03410D4D00000000
(1491215066.370100) can0 7E8#0441100A37000000
(1491215066.620129) can0 7E8#04410C1665000000
(1491215066.870094) can0 7E8#03410D4B00000000
(1491215067.120151) can0 7E8#03410D4A00000000
(1491215067.370098) can0 7E8#04411009D0000000
(1491215067.620186) can0 7E8#0341040000000000
(1491215067.870120) can0 7E8#03410D4900000000
(1491215068.120140) can0 7E8#03410D4900000000
(1491215068.370104) can0 7E8#0441100630000000
(1491215068.620135) can0 7E8#04410C1720000000
(1491215068.870124) can0 7E8#03410D4800000000
(1491215069.120155) can0 7E8#03410D4800000000
(1491215069.370101) can0 7E8#04411008A1000000
(1491215069.620163) can0 7E8#034104BC00000000
(1491215069.870148) can0 7E8#03410D4900000000
(1491215070.120170) can0 7E8#03410D4900000000
(1491215070.370194) can0 7E8#0441100AF6000000
(1491215070.620214) can0 7E8#04410C16EF000000
(1491215070.870230) can0 7E8#03410D4900000000
(1491215071.120258) can0 7E8#03410D4900000000
(1491215071.370273) can0 7E8#0441100C3B000000
(1491215071.620320) can0 7E8#0341048800000000
(1491215071.870106) can0 7E8#03410D4A00000000
(1491215072.120098) can0 7E8#03410D4A00000000
(1491215072.370064) can0 7E8#0441100794000000
(1491215072.620083) can0 7E8#04410C15F4000000
(1491215072.870067) can0 7E8#03410D4900000000
(1491215073.120187) can0 7E8#03410D4900000000
(1491215073.370053) can0 7E8#04411009A1000000
(1491215073.620208) can0 7E8#0341040000000000
(1491215073.870091) can0 7E8#03410D4800000000
(1491215074.120122) can0 7E8#03410D4800000000
(1491215074.370042) can0 7E8#0441100992000000
(1491215074.620047) can0 7E8#04410C153A000000
(1491215074.870045) can0 7E8#03410D4700000000
(1491215075.120065) can0 7E8#03410D4700000000
(1491215075.370031) can0 7E8#0441100701000000
(1491215075.620062) can0 7E8#0341044800000000
(1491215075.870035) can0 7E8#03410D4600000000
(1491215076.120057) can0 7E8#03410D4600000000
(1491215076.370022) can0 7E8#044110054C000000
(1491215076.620056) can0 7E8#04410C1596000000
(1491215076.870016) can0 7E8#03410D4600000000
(1491215077.120063) can0 7E8#03410D4600000000
(1491215077.370111) can0 7E8#04411005C3000000
(1491215077.620014) can0 7E8#0341046C00000000
(1491215077.870007) can0 7E8#03410D4500000000
(1491215078.120151) can0 7E8#03410D4500000000
(1491215078.370000) can0 7E8#0441100510000000
(1491215078.620032) can0 7E8#04410C1557000000
(1491215078.870080) can0 7E8#03410D4500000000
(1491215079.120049) can0 7E8#03410D4500000000
(1491215079.370006) can0 7E8#0441100687000000
(1491215079.620045) can0 7E8#034104A300000000
(1491215079.869994) can0 7E8#03410D4500000000
(1491215080.120045) can0 7E8#03410D4500000000
(1491215080.370018) can0 7E8#044110082D000000
(1491215080.620011) can0 7E8#04410C15FB000000
(1491215080.869974) can0 7E8#03410D4500000000
(1491215081.120005) can0 7E8#03410D4500000000
(1491215081.369970) can0 7E8#04411009FF000000
(1491215081.619991) can0 7E8#034104B600000000
(1491215081.869973) can0 7E8#03410D4500000000
(1491215082.120019) can0 7E8#03410D4600000000
(1491215082.369997) can0 7E8#0441100AC1000000
(1491215082.619982) can0 7E8#04410C1612000000
(1491215082.869953) can0 7E8#03410D4600000000
(1491215083.120009) can0 7E8#03410D4700000000
(1491215083.369950) can0 7E8#0441100C25000000
(1491215083.619996) can0 7E8#034104BA00000000
(1491215083.869953) can0 7E8#03410D4700000000
(1491215084.119965) can0 7E8#03410D4800000000
(1491215084.369976) can0 7E8#0441100C8F000000
(1491215084.620043) can0 7E8#04410C164D000000
(1491215084.869983) can0 7E8#03410D4800000000
(1491215085.119989) can0 7E8#03410D4800000000
(1491215085.369934) can0 7E8#0441100C51000000
(1491215085.619959) can0 7E8#034104AF00000000
(1491215085.869932) can0 7E8#03410D4900000000
(1491215086.119995) can0 7E8#03410D4900000000
(1491215086.369951) can0 7E8#0441100BBE000000
(1491215086.619978) can0 7E8#04410C16C8000000
(1491215086.869996) can0 7E8#03410D4A00000000
(1491215087.119967) can0 7E8#03410D4A00000000
(1491215087.369939) can0 7E8#0441100A5A000000
(1491215087.619931) can0 7E8#034104E800000000
(1491215087.869902) can0 7E8#03410D4B00000000
(1491215088.119983) can0 7E8#03410D4B00000000
(1491215088.369930) can0 7E8#0441100D1C000000
(1491215088.619942) can0 7E8#04410C1681000000
(1491215088.869957) can0 7E8#03410D4C00000000
(1491215089.119971) can0 7E8#03410D4C00000000
(1491215089.369895) can0 7E8#0441100E8D000000
(1491215089.619908) can0 7E8#034104B600000000
(1491215089.869883) can0 7E8#03410D4D00000000
(1491215090.119935) can0 7E8#03410D4D00000000
(1491215090.369901) can0 7E8#0441100FC8000000
(1491215090.619932) can0 7E8#04410C173A000000
(1491215090.869906) can0 7E8#03410D4E00000000
(1491215091.119952) can0 7E8#03410D4F00000000
(1491215091.369874) can0 7E8#044110114C000000
(1491215091.619896) can0 7E8#034104B100000000
(1491215091.869886) can0 7E8#03410D5000000000
(1491215092.119917) can0 7E8#03410D5000000000
(1491215092.369881) can0 7E8#0441100FC2000000
(1491215092.619928) can0 7E8#04410C17ED000000
(1491215092.869875) can0 7E8#03410D5100000000
(1491215093.119981) can0 7E8#03410D5100000000
(1491215093.369878) can0 7E8#0441100C31000000
(1491215093.619879) can0 7E8#0341048F00000000
(1491215093.869865) can0 7E8#03410D5100000000
(1491215094.119942) can0 7E8#03410D5100000000
(1491215094.369860) can0 7E8#04411009EC000000
(1491215094.619883) can0 7E8#04410C1847000000
(1491215094.869930) can0 7E8#03410D5200000000
(1491215095.119912) can0 7E8#03410D5200000000
(1491215095.369849) can0 7E8#0441100C41000000
(1491215095.619881) can0 7E8#034104CD00000000
(1491215095.869852) can0 7E8#03410D5300000000
(1491215096.119873) can0 7E8#03410D5300000000
(1491215096.369847) can0 7E8#0441100F87000000
(1491215096.619870) can0 7E8#04410C18D7000000
(1491215096.869934) can0 7E8#03410D5400000000
(1491215097.119857) can0 7E8#03410D5400000000
(1491215097.369870) can0 7E8#0441100FC2000000
(1491215097.619861) can0 7E8#034104A700000000
(1491215097.869837) can0 7E8#03410D5500000000
(1491215098.119846) can0 7E8#03410D5500000000
(1491215098.369824) can0 7E8#0441100F7D000000
(1491215098.619815) can0 7E8#04410C197F000000
(1491215098.869821) can0 7E8#03410D5600000000
(1491215099.119860) can0 7E8#03410D5600000000
(1491215099.369876) can0 7E8#0441100F32000000
(1491215099.619897) can0 7E8#0341049F00000000
(1491215099.869811) can0 7E8#03410D5700000000
(1491215100.119984) can0 7E8#03410D5700000000
(1491215100.369806) can0 7E8#0441100CAB000000
(1491215100.619827) can0 7E8#04410C19F0000000
(1491215100.869793) can0 7E8#03410D5700000000
(1491215101.119846) can0 7E8#03410D5700000000
(1491215101.369786) can0 7E8#0441100849000000
(1491215101.619818) can0 7E8#0341044400000000
(1491215101.869791) can0 7E8#03410D5700000000
(1491215102.119839) can0 7E8#03410D5700000000
(1491215102.369832) can0 7E8#044110057E000000
(1491215102.619808) can0 7E8#04410C19B5000000
(1491215102.869856) can0 7E8#03410D5600000000
(1491215103.119818) can0 7E8#03410D5600000000
(1491215103.369776) can0 7E8#04411005A3000000
(1491215103.619856) can0 7E8#0341044F00000000
(1491215103.869770) can0 7E8#03410D5600000000
(1491215104.119792) can0 7E8#03410D5500000000
(1491215104.369756) can0 7E8#04411005D5000000
(1491215104.619787) can0 7E8#04410C1953000000
(1491215104.869759) can0 7E8#03410D5500000000
(1491215105.119807) can0 7E8#03410D5500000000
(1491215105.369745) can0 7E8#0441100620000000
(1491215105.619794) can0 7E8#0341045800000000
(1491215105.869781) can0 7E8#03410D5400000000
(1491215106.119790) can0 7E8#03410D5400000000
(1491215106.369735) can0 7E8#04411006A0000000
(1491215106.619767) can0 7E8#04410C190E000000
(1491215106.869729) can0 7E8#03410D5400000000
(1491215107.119787) can0 7E8#03410D5400000000
(1491215107.369731) can0 7E8#0441100788000000
(1491215107.619779) can0 7E8#0341047B00000000
(1491215107.869982) can0 7E8#03410D5400000000
(1491215108.119806) can0 7E8#03410D5400000000
(1491215108.369746) can0 7E8#04411008E6000000
(1491215108.619770) can0 7E8#04410C190F000000
(1491215108.869743) can0 7E8#03410D5400000000
(1491215109.119791) can0 7E8#03410D5400000000
(1491215109.369714) can0 7E8#04411009CD000000
(1491215109.619751) can0 7E8#0341048B00000000
(1491215109.869732) can0 7E8#03410D5500000000
(1491215110.119779) can0 7E8#03410D5500000000
(1491215110.369726) can0 7E8#04411008E3000000
(1491215110.619750) can0 7E8#04410C191B000000
(1491215110.869819) can0 7E8#03410D5400000000
(1491215111.119747) can0 7E8#03410D5500000000
(1491215111.369714) can0 7E8#044110086F000000
(1491215111.619789) can0 7E8#0341049000000000
(1491215111.869684) can0 7E8#03410D5400000000
(1491215112.119728) can0 7E8#03410D5400000000
(1491215112.369707) can0 7E8#04411009E6000000
(1491215112.619695) can0 7E8#04410C192D000000
(1491215112.869700) can0 7E8#03410D5500000000
(1491215113.119740) can0 7E8#03410D5500000000
(1491215113.369664) can0 7E8#0441100B8F000000
(1491215113.619711) can0 7E8#034104A800000000
(1491215113.869683) can0 7E8#03410D5500000000
(1491215114.119706) can0 7E8#03410D5500000000
(1491215114.369676) can0 7E8#0441100B22000000
(1491215114.619680) can0 7E8#04410C1962000000
(1491215114.869706) can0 7E8#03410D5500000000
(1491215115.119704) can0 7E8#03410D5500000000
(1491215115.369676) can0 7E8#0441100A3D000000
(1491215115.619740) can0 7E8#034104A100000000
(1491215115.869662) can0 7E8#03410D5600000000
(1491215116.119694) can0 7E8#03410D5600000000
(1491215116.369656) can0 7E8#04411009A4000000
(1491215116.619653) can0 7E8#04410C197F000000
(1491215116.869660) can0 7E8#03410D5600000000
(1491215117.120374) can0 7E8#03410D5600000000
(1491215117.369655) can0 7E8#0441100C9C000000
(1491215117.620353) can0 7E8#034104C300000000
(1491215117.870591) can0 7E8#03410D5600000000
(1491215118.120314) can0 7E8#03410D5600000000
(1491215118.370302) can0 7E8#0441100D73000000
(1491215118.620307) can0 7E8#04410C19CF000000
(1491215118.870299) can0 7E8#03410D5700000000
(1491215119.120278) can0 7E8#03410D5700000000
(1491215119.370400) can0 7E8#0441100CC7000000
(1491215119.620272) can0 7E8#0341049D00000000
(1491215119.870421) can0 7E8#03410D5700000000
(1491215120.120317) can0 7E8#03410D5700000000
(1491215120.370371) can0 7E8#0441100A6C000000
(1491215120.620391) can0 7E8#04410C19D9000000
(1491215120.870335) can0 7E8#03410D5700000000
(1491215121.120573) can0 7E8#03410D5700000000
(1491215121.370153) can0 7E8#0441100A4A000000
(1491215121.620103) can0 7E8#034104D900000000
(1491215121.870167) can0 7E8#03410D5700000000
(1491215122.120047) can0 7E8#03410D5700000000
(1491215122.370070) can0 7E8#0441100BE3000000
(1491215122.620080) can0 7E8#04410C19E3000000
(1491215122.870289) can0 7E8#03410D5700000000
(1491215123.120062) can0 7E8#03410D5700000000
(1491215123.369993) can0 7E8#0441100C8C000000
(1491215123.620005) can0 7E8#034104B800000000
(1491215123.870012) can0 7E8#03410D5700000000
(1491215124.120013) can0 7E8#03410D5800000000
(1491215124.369990) can0 7E8#0441100C99000000
(1491215124.619930) can0 7E8#04410C1A0D000000
(1491215124.869992) can0 7E8#03410D5800000000
(1491215125.119916) can0 7E8#03410D5800000000
(1491215125.369923) can0 7E8#0441100C89000000
(1491215125.619920) can0 7E8#034104BA00000000
(1491215125.869918) can0 7E8#03410D5800000000
(1491215126.119906) can0 7E8#03410D5800000000
(1491215126.369812) can0 7E8#0441100C83000000
(1491215126.619777) can0 7E8#04410C1A35000000
(1491215126.869906) can0 7E8#03410D5800000000
(1491215127.119749) can0 7E8#03410D5800000000
(1491215127.369812) can0 7E8#0441100C6D000000
(1491215127.619801) can0 7E8#034104B900000000
(1491215127.870037) can0 7E8#03410D5800000000
(1491215128.119734) can0 7E8#03410D5800000000
(1491215128.369716) can0 7E8#0441100C79000000
(1491215128.619705) can0 7E8#04410C1A50000000
(1491215128.869708) can0 7E8#03410D5900000000
(1491215129.119679) can0 7E8#03410D5900000000
(1491215129.369672) can0 7E8#0441100C6D000000
(1491215129.619629) can0 7E8#034104B800000000
(1491215129.869865) can0 7E8#03410D5900000000
(1491215130.119612) can0 7E8#03410D5900000000
(1491215130.369788) can0 7E8#0441100C4E000000
(1491215130.619557) can0 7E8#04410C1A6B000000
(1491215130.869865) can0 7E8#03410D5900000000
(1491215131.119598) can0 7E8#03410D5900000000
(1491215131.369616) can0 7E8#0441100C79000000
(1491215131.619747) can0 7E8#034104D300000000
(1491215131.869543) can0 7E8#03410D5900000000
(1491215132.119704) can0 7E8#03410D5900000000
(1491215132.369541) can0 7E8#0441100E25000000
(1491215132.619688) can0 7E8#04410C1A96000000
(1491215132.869683) can0 7E8#03410D5900000000
(1491215133.119692) can0 7E8#03410D5900000000
(1491215133.369506) can0 7E8#0441100DFD000000
(1491215133.619653) can0 7E8#034104AB00000000
(1491215133.869524) can0 7E8#03410D5A00000000
(1491215134.119622) can0 7E8#03410D5A00000000
(1491215134.369507) can0 7E8#0441100D76000000
(1491215134.619567) can0 7E8#04410C1AAF000000
(1491215134.869562) can0 7E8#03410D5A00000000
(1491215135.119534) can0 7E8#03410D5A00000000
(1491215135.369483) can0 7E8#0441100D32000000
(1491215135.619555) can0 7E8#034104B600000000
(1491215135.869479) can0 7E8#03410D5A00000000
(1491215136.119709) can0 7E8#03410D5A00000000
(1491215136.369474) can0 7E8#0441100CED000000
(1491215136.619496) can0 7E8#04410C1AC6000000
(1491215136.869470) can0 7E8#03410D5A00000000
(1491215137.119665) can0 7E8#03410D5A00000000
(1491215137.369464) can0 7E8#0441100CD4000000
(1491215137.619487) can0 7E8#034104AE00000000
